  can0  0CFE48F0   [8]  00 00 00 00 00 00 01 14
  can0  0CFE49F0   [8]  FF FF FF FF 00 00 FF FC
  can0  0CF004F0   [8]  FF FF FF D0 18 FF FF FF
  can0  0CFE13F0   [8]  7D 7D 30 FF FF FF FF FF
  can0  0CFEF2F0   [8]  32 00 FF FF FF FF FF FF
  can0  0CFE45F0   [8]  0C 3F 79 27 7B FF FF FF
  can0  0CFE46F0   [8]  FA 3F FF FF FF FF FF FF
  can0  0CFE11F0   [8]  7D 7D 30 FF FF FF FF FF
  can0  0CFE12F0   [8]  7D 7D 30 FF FF FF FF FF
  can0  0CFE14F0   [8]  7D 7D 30 FF FF FF FF FF
  can0  0CFE17F0   [8]  7D 7D 30 FF FF FF FF FF
  can0  0CFE18F0   [8]  7D 7D 30 FF FF FF FF FF
  can0  0CF022F0   [8]  00 00 00 00 00 00 FF E0
  can0  0CFEE7F0   [8]  16 28 00 00 FF FF FF FF
  can0  0CACFFF0   [8]  64 7D 3D FF C0 FF FF FF
  can0  0CFD02F0   [8]  FF FF FF FF FF FF 00 FD
  can0  0CFE48F0   [8]  00 00 00 00 00 00 01 14
  can0  0CFE49F0   [8]  FF FF FF FF 00 00 FF FC
  can0  0CF004F0   [8]  FF FF FF D0 18 FF FF FF
  can0  0CFE13F0   [8]  7D 7D 30 FF FF FF FF FF
  can0  0CFEF2F0   [8]  32 00 FF FF FF FF FF FF
  can0  0CFE45F0   [8]  0C 3F 79 12 7B FF FF FF
  can0  0CFE46F0   [8]  FA 3F FF FF FF FF FF FF
  can0  0CFE11F0   [8]  7D 7D 30 FF FF FF FF FF
  can0  0CFE12F0   [8]  7D 7D 30 FF FF FF FF FF
  can0  0CFE14F0   [8]  7D 7D 30 FF FF FF FF FF
  can0  0CFE17F0   [8]  7D 7D 30 FF FF FF FF FF
  can0  0CFE18F0   [8]  7D 7D 30 FF FF FF FF FF
  can0  0CF022F0   [8]  00 00 00 00 00 00 FF E0
  can0  0CACFFF0   [8]  64 7D 3D FF C0 FF FF FF
  can0  0CFE48F0   [8]  00 00 00 00 00 00 01 14
  can0  0CFE49F0   [8]  FF FF FF FF 00 00 FF FC
  can0  0CF004F0   [8]  FF FF FF D0 18 FF FF FF
  can0  0CFE13F0   [8]  7D 7D 30 FF FF FF FF FF
  can0  19F8014A   [8]  5E B3 FC 1E 96 C2 5F 03
  can0  19F8024A   [8]  8A 00 13 57 00 00 00 00
  can0  0CFEF2F0   [8]  32 00 FF FF FF FF FF FF
  can0  0CFE45F0   [8]  0C 3F 79 19 7B FF FF FF
  can0  0CFE46F0   [8]  FA 3F FF FF FF FF FF FF
  can0  0CFE11F0   [8]  7D 7D 30 FF FF FF FF FF
  can0  0CFE12F0   [8]  7D 7D 30 FF FF FF FF FF
  can0  0CFE14F0   [8]  7D 7D 30 FF FF FF FF FF
  can0  0CFE17F0   [8]  7D 7D 30 FF FF FF FF FF
  can0  0CFE18F0   [8]  7D 7D 30 FF FF FF FF FF
  can0  0CF022F0   [8]  00 00 00 00 00 00 FF E0
  can0  0CACFFF0   [8]  64 7D 3D FF C0 FF FF FF
  can0  0CCBFFF7   [8]  FE FF FF FF 00 00 00 00
  can0  0CFE48F0   [8]  00 00 00 00 00 00 01 14
  can0  0CFE49F0   [8]  FF FF FF FF 00 00 FF FC
  can0  0CF004F0   [8]  FF FF FF D8 18 FF FF FF
  can0  0CFE13F0   [8]  7D 7D 30 FF FF FF FF FF
  can0  0CFEF2F0   [8]  32 00 FF FF FF FF FF FF
  can0  0CFE45F0   [8]  0C 3F 79 12 7B FF FF FF
  can0  0CFE46F0   [8]  FA 3F FF FF FF FF FF FF
  can0  0CFE11F0   [8]  7D 7D 30 FF FF FF FF FF
  can0  0CFE12F0   [8]  7D 7D 30 FF FF FF FF FF
  can0  0CFE14F0   [8]  7D 7D 30 FF FF FF FF FF
  can0  0CFE17F0   [8]  7D 7D 30 FF FF FF FF FF
  can0  0CFE18F0   [8]  7D 7D 30 FF FF FF FF FF
  can0  0CF022F0   [8]  00 00 00 00 00 00 FF E0
  can0  0CACFFF0   [8]  64 7D 3D FF C0 FF FF FF
  can0  0CFE48F0   [8]  00 00 00 00 00 00 01 14
  can0  0CFE49F0   [8]  FF FF FF FF 00 00 FF FC
  can0  0CF004F0   [8]  FF FF FF D8 18 FF FF FF
  can0  0CFE13F0   [8]  7D 7D 30 FF FF FF FF FF
  can0  0CFEF2F0   [8]  32 00 FF FF FF FF FF FF
  can0  0CFE45F0   [8]  0C 3F 79 24 7B FF FF FF
  can0  0CFE46F0   [8]  FA 3F FF FF FF FF FF FF
  can0  0CFE11F0   [8]  7D 7D 30 FF FF FF FF FF
  can0  0CFE12F0   [8]  7D 7D 30 FF FF FF FF FF
  can0  0CFE14F0   [8]  7D 7D 30 FF FF FF FF FF
  can0  0CFE17F0   [8]  7D 7D 30 FF FF FF FF FF
  can0  0CFE18F0   [8]  7D 7D 30 FF FF FF FF FF
  can0  0CF022F0   [8]  00 00 00 00 00 00 FF E0
  can0  0CACFFF0   [8]  64 7D 3D FF C0 FF FF FF
  can0  0CFE48F0   [8]  00 00 00 00 00 00 01 14
  can0  0CFE49F0   [8]  FF FF FF FF 00 00 FF FC
  can0  0CF004F0   [8]  FF FF FF C8 18 FF FF FF
  can0  0CFE13F0   [8]  7D 7D 30 FF FF FF FF FF
  can0  0CCBF7F0   [8]  FF FF FF FF 00 00 00 00
  can0  0CFEF2F0   [8]  32 00 FF FF FF FF FF FF
  can0  0CFE45F0   [8]  0C 3F 79 08 7B FF FF FF
  can0  0CFE46F0   [8]  FA 3F FF FF FF FF FF FF
  can0  0CFE11F0   [8]  7D 7D 30 FF FF FF FF FF
  can0  0CFE12F0   [8]  7D 7D 30 FF FF FF FF FF
  can0  0CFE14F0   [8]  7D 7D 30 FF FF FF FF FF
  can0  0CFE17F0   [8]  7D 7D 30 FF FF FF FF FF
  can0  0CFE18F0   [8]  7D 7D 30 FF FF FF FF FF
  can0  0CF022F0   [8]  00 00 00 00 00 00 FF E0
  can0  0CACFFF0   [8]  64 7D 3D FF C0 FF FF FF
  can0  0CFE41F0   [8]  01 03 03 00 FF FF FF FF
  can0  0CFE40F0   [8]  01 03 03 00 FF FF FF FF
  can0  19F8054A   [8]  00 33 8A A2 50 00 D9 31
  can0  19F8054A   [8]  01 18 00 B2 4F 97 CF F9
  can0  19F8054A   [8]  02 36 07 00 76 37 48 1F
  can0  19F8054A   [8]  03 1C C9 00 48 A6 8F FF
  can0  19F8054A   [8]  04 FF FF FF FF 10 03 00
  can0  19F8054A   [8]  05 64 00 64 00 00 00 00
  can0  19F8054A   [8]  06 00 02 F0 FF 00 00 F0
  can0  19F8054A   [8]  07 FF 00 00 FF FF FF FF
  can0  19F8014A   [8]  65 B3 FC 1E 9F C2 5F 03
  can0  19F8024A   [8]  8A 00 13 57 00 00 00 00
  can0  0CFE48F0   [8]  00 00 00 00 00 00 01 14
  can0  0CFE49F0   [8]  FF FF FF FF 00 00 FF FC
  can0  0CF004F0   [8]  FF FF FF C0 18 FF FF FF
  can0  0CFE13F0   [8]  7D 7D 30 FF FF FF FF FF
  can0  0CFEF2F0   [8]  31 00 FF FF FF FF FF FF
  can0  0CFE45F0   [8]  0C 3F 79 19 7B FF FF FF
  can0  0CFE46F0   [8]  FA 3F FF FF FF FF FF FF
  can0  0CFE11F0   [8]  7D 7D 30 FF FF FF FF FF
  can0  0CFE12F0   [8]  7D 7D 30 FF FF FF FF FF
  can0  0CFE14F0   [8]  7D 7D 30 FF FF FF FF FF
  can0  0CFE17F0   [8]  7D 7D 30 FF FF FF FF FF
  can0  0CFE18F0   [8]  7D 7D 30 FF FF FF FF FF
  can0  0CF022F0   [8]  00 00 00 00 00 00 FF E0
  can0  0CACFFF0   [8]  64 7D 3D FF C0 FF FF FF
  can0  0CFE48F0   [8]  00 00 00 00 00 00 01 14
  can0  0CFE49F0   [8]  FF FF FF FF 00 00 FF FC
  can0  0CF004F0   [8]  FF FF FF C0 18 FF FF FF
  can0  0CFE13F0   [8]  7D 7D 30 FF FF FF FF FF
  can0  0CFEF2F0   [8]  31 00 FF FF FF FF FF FF
  can0  0CFE45F0   [8]  0C 3F 79 19 7B FF FF FF
  can0  0CFE46F0   [8]  FA 3F FF FF FF FF FF FF
  can0  0CFE11F0   [8]  7D 7D 30 FF FF FF FF FF
  can0  0CFE12F0   [8]  7D 7D 30 FF FF FF FF FF
  can0  0CFE14F0   [8]  7D 7D 30 FF FF FF FF FF
  can0  0CFE17F0   [8]  7D 7D 30 FF FF FF FF FF
  can0  0CFE18F0   [8]  7D 7D 30 FF FF FF FF FF
  can0  0CF022F0   [8]  00 00 00 00 00 00 FF E0
  can0  0CACFFF0   [8]  63 7D 3D FF C0 FF FF FF
  can0  0CCBF0F7   [8]  12 00 8D 00 FF FF FF FF
  can0  0CCBF7F0   [8]  13 00 8D 00 00 00 00 00
  can0  0CFE48F0   [8]  00 00 00 00 00 00 01 14
  can0  0CFE49F0   [8]  FF FF FF FF 00 00 FF FC
  can0  0CF004F0   [8]  FF FF FF B0 18 FF FF FF
  can0  0CFE13F0   [8]  7D 7D 30 FF FF FF FF FF
  can0  0CFEF2F0   [8]  31 00 FF FF FF FF FF FF
  can0  0CFE45F0   [8]  0C 3F 79 19 7B FF FF FF
  can0  0CFE46F0   [8]  FA 3F FF FF FF FF FF FF
  can0  0CFE11F0   [8]  7D 7D 30 FF FF FF FF FF
  can0  0CFE12F0   [8]  7D 7D 30 FF FF FF FF FF
  can0  0CFE14F0   [8]  7D 7D 30 FF FF FF FF FF
  can0  0CFE17F0   [8]  7D 7D 30 FF FF FF FF FF
  can0  0CFE18F0   [8]  7D 7D 30 FF FF FF FF FF
  can0  0CF022F0   [8]  00 00 00 00 00 00 FF E0
  can0  0CACFFF0   [8]  64 7D 3D FF C0 FF FF FF
  can0  0CFE48F0   [8]  00 00 00 00 00 00 01 14
  can0  0CFE49F0   [8]  FF FF FF FF 00 00 FF FC
  can0  0CF004F0   [8]  FF FF FF B0 18 FF FF FF
  can0  0CFE13F0   [8]  7D 7D 30 FF FF FF FF FF
  can0  0CFEF2F0   [8]  31 00 FF FF FF FF FF FF
  can0  0CFE45F0   [8]  0C 3F 79 19 7B FF FF FF
  can0  0CFE46F0   [8]  FA 3F FF FF FF FF FF FF
  can0  0CFE11F0   [8]  7D 7D 30 FF FF FF FF FF
  can0  0CFE12F0   [8]  7D 7D 30 FF FF FF FF FF
  can0  0CFE14F0   [8]  7D 7D 30 FF FF FF FF FF
  can0  0CFE17F0   [8]  7D 7D 30 FF FF FF FF FF
  can0  0CFE18F0   [8]  7D 7D 30 FF FF FF FF FF
  can0  0CF022F0   [8]  00 00 00 00 00 00 FF E0
  can0  0CACFFF0   [8]  64 7D 3D FF C0 FF FF FF
  can0  19F8014A   [8]  69 B3 FC 1E A3 C2 5F 03
  can0  19F8024A   [8]  8B 00 13 57 02 00 00 00
  can0  0CFE48F0   [8]  00 00 00 00 00 00 01 14
  can0  0CFE49F0   [8]  FF FF FF FF 00 00 FF FC
  can0  0CF004F0   [8]  FF FF FF B0 18 FF FF FF
  can0  0CFE13F0   [8]  7D 7D 30 FF FF FF FF FF
  can0  0CFEF2F0   [8]  31 00 FF FF FF FF FF FF
  can0  0CFE45F0   [8]  0C 3F 79 19 7B FF FF FF
  can0  0CFE46F0   [8]  FA 3F FF FF FF FF FF FF
  can0  0CFE11F0   [8]  7D 7D 30 FF FF FF FF FF
  can0  0CFE12F0   [8]  7D 7D 30 FF FF FF FF FF
  can0  0CFE14F0   [8]  7D 7D 30 FF FF FF FF FF
  can0  0CFE17F0   [8]  7D 7D 30 FF FF FF FF FF
  can0  0CFE18F0   [8]  7D 7D 30 FF FF FF FF FF
  can0  0CF022F0   [8]  00 00 00 00 00 00 FF E0
  can0  0CFEE7F0   [8]  16 28 00 00 FF FF FF FF
  can0  0CACFFF0   [8]  64 7D 3D FF C0 FF FF FF
  can0  0CFD02F0   [8]  FF FF FF FF FF FF 00 FD
  can0  0CFE48F0   [8]  00 00 00 00 00 00 01 14
  can0  0CFE49F0   [8]  FF FF FF FF 00 00 FF FC
  can0  0CF004F0   [8]  FF FF FF A8 18 FF FF FF
  can0  0CFE13F0   [8]  7D 7D 30 FF FF FF FF FF
  can0  0CFEF2F0   [8]  31 00 FF FF FF FF FF FF
  can0  0CFE45F0   [8]  0C 3F 79 19 7B FF FF FF
  can0  0CFE46F0   [8]  FA 3F FF FF FF FF FF FF
  can0  0CFE11F0   [8]  7D 7D 30 FF FF FF FF FF
  can0  0CFE12F0   [8]  7D 7D 30 FF FF FF FF FF
  can0  0CFE14F0   [8]  7D 7D 30 FF FF FF FF FF
  can0  0CFE17F0   [8]  7D 7D 30 FF FF FF FF FF
  can0  0CFE18F0   [8]  7D 7D 30 FF FF FF FF FF
  can0  0CF022F0   [8]  00 00 00 00 00 00 FF E0
  can0  0CACFFF0   [8]  64 7D 3D FF C0 FF FF FF
  can0  0CFE48F0   [8]  00 00 00 00 00 00 01 14
  can0  0CFE49F0   [8]  FF FF FF FF 00 00 FF FC
  can0  0CF004F0   [8]  FF FF FF A8 18 FF FF FF
  can0  0CFE13F0   [8]  7D 7D 30 FF FF FF FF FF
  can0  0CFEF2F0   [8]  31 00 FF FF FF FF FF FF
  can0  0CFE45F0   [8]  0C 3F 79 19 7B FF FF FF
  can0  0CFE46F0   [8]  FA 3F FF FF FF FF FF FF
  can0  0CFE11F0   [8]  7D 7D 30 FF FF FF FF FF
  can0  0CFE12F0   [8]  7D 7D 30 FF FF FF FF FF
  can0  0CFE14F0   [8]  7D 7D 30 FF FF FF FF FF
  can0  0CFE17F0   [8]  7D 7D 30 FF FF FF FF FF
  can0  0CFE18F0   [8]  7D 7D 30 FF FF FF FF FF
  can0  0CF022F0   [8]  00 00 00 00 00 00 FF E0
  can0  0CACFFF0   [8]  64 7D 3D FF C0 FF FF FF
  can0  19F8014A   [8]  6F B3 FC 1E AD C2 5F 03
  can0  0CFE48F0   [8]  00 00 00 00 00 00 01 14
  can0  0CFE49F0   [8]  FF FF FF FF 00 00 FF FC
  can0  0CF004F0   [8]  FF FF FF B0 18 FF FF FF
  can0  0CFE13F0   [8]  7D 7D 30 FF FF FF FF FF
  can0  19F8024A   [8]  8B 00 13 57 00 00 00 00
  can0  0CFEF2F0   [8]  32 00 FF FF FF FF FF FF
  can0  0CFE45F0   [8]  0C 3F 79 20 7B FF FF FF
  can0  0CFE46F0   [8]  FA 3F FF FF FF FF FF FF
  can0  0CFE11F0   [8]  7D 7D 30 FF FF FF FF FF
  can0  0CFE12F0   [8]  7D 7D 30 FF FF FF FF FF
  can0  0CFE14F0   [8]  7D 7D 30 FF FF FF FF FF
  can0  0CFE17F0   [8]  7D 7D 30 FF FF FF FF FF
  can0  0CFE18F0   [8]  7D 7D 30 FF FF FF FF FF
  can0  0CF022F0   [8]  00 00 00 00 00 00 FF E0
  can0  0CACFFF0   [8]  64 7D 3D FF C0 FF FF FF
  can0  0CFEF4F0   [8]  FF FF FF FF FF FF FF FF
  can0  0CFE48F0   [8]  00 00 00 00 00 00 01 14
  can0  0CFE49F0   [8]  FF FF FF FF 00 00 FF FC
  can0  0CF004F0   [8]  FF FF FF B0 18 FF FF FF
  can0  0CFE13F0   [8]  7D 7D 30 FF FF FF FF FF
  can0  0CFEF2F0   [8]  32 00 FF FF FF FF FF FF
  can0  0CFE45F0   [8]  0C 3F 79 12 7B FF FF FF
  can0  0CFE46F0   [8]  FA 3F FF FF FF FF FF FF
  can0  0CFE11F0   [8]  7D 7D 30 FF FF FF FF FF
  can0  0CFE12F0   [8]  7D 7D 30 FF FF FF FF FF
  can0  0CFE14F0   [8]  7D 7D 30 FF FF FF FF FF
  can0  0CFE17F0   [8]  7D 7D 30 FF FF FF FF FF
  can0  0CFE18F0   [8]  7D 7D 30 FF FF FF FF FF
  can0  0CF022F0   [8]  00 00 00 00 00 00 FF E0
  can0  0CACFFF0   [8]  64 7D 3D FF C0 FF FF FF
  can0  0CCBF0F7   [8]  12 00 43 00 FF FF FF FF
  can0  0CCBF7F0   [8]  13 00 43 00 00 00 00 00
  can0  0CFE48F0   [8]  00 00 00 00 00 00 01 14
  can0  0CFE49F0   [8]  FF FF FF FF 00 00 FF FC
  can0  0CF004F0   [8]  FF FF FF A8 18 FF FF FF
  can0  0CFE13F0   [8]  7D 7D 30 FF FF FF FF FF
  can0  0CFEF2F0   [8]  32 00 FF FF FF FF FF FF
  can0  0CFE45F0   [8]  0C 3F 79 12 7B FF FF FF
  can0  0CFE46F0   [8]  FA 3F FF FF FF FF FF FF
  can0  0CFE11F0   [8]  7D 7D 30 FF FF FF FF FF
  can0  0CFE12F0   [8]  7D 7D 30 FF FF FF FF FF
  can0  0CFE14F0   [8]  7D 7D 30 FF FF FF FF FF
  can0  0CFE17F0   [8]  7D 7D 30 FF FF FF FF FF
  can0  0CFE18F0   [8]  7D 7D 30 FF FF FF FF FF
  can0  0CF022F0   [8]  00 00 00 00 00 00 FF E0
  can0  0CACFFF0   [8]  64 7D 3D FF C0 FF FF FF
  can0  0CFE41F0   [8]  01 03 03 00 FF FF FF FF
  can0  0CFE40F0   [8]  01 03 03 00 FF FF FF FF
  can0  0CFE48F0   [8]  00 00 00 00 00 00 01 14
  can0  0CFE49F0   [8]  FF FF FF FF 00 00 FF FC
  can0  0CF004F0   [8]  FF FF FF A8 18 FF FF FF
  can0  0CFE13F0   [8]  7D 7D 30 FF FF FF FF FF
  can0  0CFEF2F0   [8]  32 00 FF FF FF FF FF FF
  can0  0CFE45F0   [8]  0C 3F 79 12 7B FF FF FF
  can0  0CFE46F0   [8]  FA 3F FF FF FF FF FF FF
  can0  0CFE11F0   [8]  7D 7D 30 FF FF FF FF FF
  can0  0CFE12F0   [8]  7D 7D 30 FF FF FF FF FF
  can0  0CFE14F0   [8]  7D 7D 30 FF FF FF FF FF
  can0  0CFE17F0   [8]  7D 7D 30 FF FF FF FF FF
  can0  0CFE18F0   [8]  7D 7D 30 FF FF FF FF FF
  can0  0CF022F0   [8]  00 00 00 00 00 00 FF E0
  can0  0CACFFF0   [8]  64 7D 3D FF C0 FF FF FF
  can0  19F8054A   [8]  00 33 8B A2 50 10 00 32
  can0  19F8054A   [8]  01 18 00 52 FC 50 D3 F9
  can0  19F8054A   [8]  02 36 07 00 9C 1F A3 24
  can0  19F8054A   [8]  03 1C C9 00 40 AD 95 FF
  can0  19F8054A   [8]  04 FF FF FF FF 10 03 00
  can0  19F8054A   [8]  05 64 00 64 00 00 00 00
  can0  19F8054A   [8]  06 00 02 F0 FF 00 00 F0
  can0  19F8054A   [8]  07 FF 00 00 FF FF FF FF
  can0  19F8014A   [8]  75 B3 FC 1E B6 C2 5F 03
  can0  19F8024A   [8]  8B 00 13 57 00 00 00 00
  can0  0CFE48F0   [8]  00 00 00 00 00 00 01 14
  can0  0CFE49F0   [8]  FF FF FF FF 00 00 FF FC
  can0  0CF004F0   [8]  FF FF FF A0 18 FF FF FF
  can0  0CFE13F0   [8]  7D 7D 30 FF FF FF FF FF
  can0  0CFEF2F0   [8]  32 00 FF FF FF FF FF FF
  can0  0CFE45F0   [8]  0C 3F 79 24 7B FF FF FF
  can0  0CFE46F0   [8]  FA 3F FF FF FF FF FF FF
  can0  0CFE11F0   [8]  7D 7D 30 FF FF FF FF FF
  can0  0CFE12F0   [8]  7D 7D 30 FF FF FF FF FF
  can0  0CFE14F0   [8]  7D 7D 30 FF FF FF FF FF
  can0  0CFE17F0   [8]  7D 7D 30 FF FF FF FF FF
  can0  0CFE18F0   [8]  7D 7D 30 FF FF FF FF FF
  can0  0CF022F0   [8]  00 00 00 00 00 00 FF E0
  can0  0CACFFF0   [8]  64 7D 3D FF C0 FF FF FF
  can0  0CCBF0F7   [8]  12 00 8D 00 FF FF FF FF
  can0  0CCBF7F0   [8]  13 00 8D 00 00 00 00 00
  can0  0CFE48F0   [8]  00 00 00 00 00 00 01 14
  can0  0CFE49F0   [8]  FF FF FF FF 00 00 FF FC
  can0  0CF004F0   [8]  FF FF FF A8 18 FF FF FF
  can0  0CFE13F0   [8]  7D 7D 30 FF FF FF FF FF
  can0  0CFEF2F0   [8]  32 00 FF FF FF FF FF FF
  can0  0CFE45F0   [8]  0C 3F 79 19 7B FF FF FF
  can0  0CFE46F0   [8]  FA 3F FF FF FF FF FF FF
  can0  0CFE11F0   [8]  7D 7D 30 FF FF FF FF FF
  can0  0CFE12F0   [8]  7D 7D 30 FF FF FF FF FF
  can0  0CFE14F0   [8]  7D 7D 30 FF FF FF FF FF
  can0  0CFE17F0   [8]  7D 7D 30 FF FF FF FF FF
  can0  0CFE18F0   [8]  7D 7D 30 FF FF FF FF FF
  can0  0CF022F0   [8]  00 00 00 00 00 00 FF E0
  can0  0CACFFF0   [8]  64 7D 3D FF C0 FF FF FF
  can0  0CFE48F0   [8]  00 00 00 00 00 00 01 14
  can0  0CFE49F0   [8]  FF FF FF FF 00 00 FF FC
  can0  0CF004F0   [8]  FF FF FF B8 18 FF FF FF
  can0  0CFE13F0   [8]  7D 7D 30 FF FF FF FF FF
  can0  0CFEF2F0   [8]  32 00 FF FF FF FF FF FF
  can0  0CFE45F0   [8]  0C 3F 79 19 7B FF FF FF
  can0  0CFE46F0   [8]  FA 3F FF FF FF FF FF FF
  can0  0CFE11F0   [8]  7D 7D 30 FF FF FF FF FF
  can0  0CFE12F0   [8]  7D 7D 30 FF FF FF FF FF
  can0  0CFE14F0   [8]  7D 7D 30 FF FF FF FF FF
  can0  0CFE17F0   [8]  7D 7D 30 FF FF FF FF FF
  can0  0CFE18F0   [8]  7D 7D 30 FF FF FF FF FF
  can0  0CF022F0   [8]  00 00 00 00 00 00 FF E0
  can0  0CACFFF0   [8]  64 7D 3D FF C0 FF FF FF
  can0  0CFE48F0   [8]  00 00 00 00 00 00 01 14
  can0  0CFE49F0   [8]  FF FF FF FF 00 00 FF FC
  can0  0CF004F0   [8]  FF FF FF B8 18 FF FF FF
  can0  0CFE13F0   [8]  7D 7D 30 FF FF FF FF FF
  can0  0CFEF2F0   [8]  32 00 FF FF FF FF FF FF
  can0  0CFE45F0   [8]  0C 3F 79 20 7B FF FF FF
  can0  0CFE46F0   [8]  FA 3F FF FF FF FF FF FF
  can0  0CFE11F0   [8]  7D 7D 30 FF FF FF FF FF
  can0  0CFE12F0   [8]  7D 7D 30 FF FF FF FF FF
  can0  0CFE14F0   [8]  7D 7D 30 FF FF FF FF FF
  can0  0CFE17F0   [8]  7D 7D 30 FF FF FF FF FF
  can0  0CFE18F0   [8]  7D 7D 30 FF FF FF FF FF
  can0  0CF022F0   [8]  00 00 00 00 00 00 FF E0
  can0  0CFEE7F0   [8]  16 28 00 00 FF FF FF FF
  can0  0CACFFF0   [8]  64 7D 3D FF C0 FF FF FF
  can0  0CFD02F0   [8]  FF FF FF FF FF FF 00 FD
  can0  19F8014A   [8]  7C B3 FC 1E BC C2 5F 03
  can0  19F8024A   [8]  8C 00 13 57 04 00 00 00
  can0  0CFE48F0   [8]  00 00 00 00 00 00 01 14
  can0  0CFE49F0   [8]  FF FF FF FF 00 00 FF FC
  can0  0CF004F0   [8]  FF FF FF C0 18 FF FF FF
  can0  0CFE13F0   [8]  7D 7D 30 FF FF FF FF FF
  can0  0CFEF2F0   [8]  32 00 FF FF FF FF FF FF
  can0  0CFE45F0   [8]  0C 3F 79 0F 7B FF FF FF
  can0  0CFE46F0   [8]  FA 3F FF FF FF FF FF FF
  can0  0CFE11F0   [8]  7D 7D 30 FF FF FF FF FF
  can0  0CFE12F0   [8]  7D 7D 30 FF FF FF FF FF
  can0  0CFE14F0   [8]  7D 7D 30 FF FF FF FF FF
  can0  0CFE17F0   [8]  7D 7D 30 FF FF FF FF FF
  can0  0CFE18F0   [8]  7D 7D 30 FF FF FF FF FF
  can0  0CF022F0   [8]  00 00 00 00 00 00 FF E0
  can0  0CACFFF0   [8]  64 7D 3D FF C0 FF FF FF
  can0  0CCBFFF7   [8]  FE FF FF FF 00 00 00 00
  can0  0CFE48F0   [8]  00 00 00 00 00 00 01 14
  can0  0CFE49F0   [8]  FF FF FF FF 00 00 FF FC
  can0  0CF004F0   [8]  FF FF FF C8 18 FF FF FF
  can0  0CFE13F0   [8]  7D 7D 30 FF FF FF FF FF
  can0  0CFEF2F0   [8]  32 00 FF FF FF FF FF FF
  can0  0CFE45F0   [8]  0C 3F 79 24 7B FF FF FF
  can0  0CFE46F0   [8]  FA 3F FF FF FF FF FF FF
  can0  0CFE11F0   [8]  7D 7D 30 FF FF FF FF FF
  can0  0CFE12F0   [8]  7D 7D 30 FF FF FF FF FF
  can0  0CFE14F0   [8]  7D 7D 30 FF FF FF FF FF
  can0  0CFE17F0   [8]  7D 7D 30 FF FF FF FF FF
  can0  0CFE18F0   [8]  7D 7D 30 FF FF FF FF FF
  can0  0CF022F0   [8]  00 00 00 00 00 00 FF E0
  can0  0CACFFF0   [8]  63 7D 3D FF C0 FF FF FF
  can0  0CFE48F0   [8]  00 00 00 00 00 00 01 14
  can0  0CFE49F0   [8]  FF FF FF FF 00 00 FF FC
  can0  0CF004F0   [8]  FF FF FF D0 18 FF FF FF
  can0  0CFE13F0   [8]  7D 7D 30 FF FF FF FF FF
  can0  0CFEF2F0   [8]  32 00 FF FF FF FF FF FF
  can0  0CFE45F0   [8]  0C 3F 79 19 7B FF FF FF
  can0  0CFE46F0   [8]  FA 3F FF FF FF FF FF FF
  can0  0CFE11F0   [8]  7D 7D 30 FF FF FF FF FF
  can0  0CFE12F0   [8]  7D 7D 30 FF FF FF FF FF
  can0  0CFE14F0   [8]  7D 7D 30 FF FF FF FF FF
  can0  0CFE17F0   [8]  7D 7D 30 FF FF FF FF FF
  can0  0CFE18F0   [8]  7D 7D 30 FF FF FF FF FF
  can0  0CF022F0   [8]  00 00 00 00 00 00 FF E0
  can0  0CACFFF0   [8]  63 7D 3D FF C0 FF FF FF
  can0  0CFE48F0   [8]  00 00 00 00 00 00 01 14
  can0  0CFE49F0   [8]  FF FF FF FF 00 00 FF FC
  can0  0CF004F0   [8]  FF FF FF C0 18 FF FF FF
  can0  0CFE13F0   [8]  7D 7D 30 FF FF FF FF FF
  can0  19F8014A   [8]  84 B3 FC 1E C6 C2 5F 03
  can0  19F8024A   [8]  8C 00 13 57 01 00 00 00
  can0  0CFEF2F0   [8]  31 00 FF FF FF FF FF FF
  can0  0CFE45F0   [8]  0C 3F 79 20 7B FF FF FF
  can0  0CFE46F0   [8]  FA 3F FF FF FF FF FF FF
  can0  0CFE11F0   [8]  7D 7D 30 FF FF FF FF FF
  can0  0CFE12F0   [8]  7D 7D 30 FF FF FF FF FF
  can0  0CFE14F0   [8]  7D 7D 30 FF FF FF FF FF
  can0  0CFE17F0   [8]  7D 7D 30 FF FF FF FF FF
  can0  0CFE18F0   [8]  7D 7D 30 FF FF FF FF FF
  can0  0CF022F0   [8]  00 00 00 00 00 00 FF E0
  can0  0CACFFF0   [8]  64 7D 3D FF C0 FF FF FF
  can0  0CFE48F0   [8]  00 00 00 00 00 00 01 14
  can0  0CFE49F0   [8]  FF FF FF FF 00 00 FF FC
  can0  0CF004F0   [8]  FF FF FF C0 18 FF FF FF
  can0  0CFE13F0   [8]  7D 7D 30 FF FF FF FF FF
  can0  0CFEF2F0   [8]  31 00 FF FF FF FF FF FF
  can0  0CFE45F0   [8]  0C 3F 79 0F 7B FF FF FF
  can0  0CFE46F0   [8]  FA 3F FF FF FF FF FF FF
  can0  0CFE11F0   [8]  7D 7D 30 FF FF FF FF FF
  can0  0CFE12F0   [8]  7D 7D 30 FF FF FF FF FF
  can0  0CFE14F0   [8]  7D 7D 30 FF FF FF FF FF
  can0  0CFE17F0   [8]  7D 7D 30 FF FF FF FF FF
  can0  0CFE18F0   [8]  7D 7D 30 FF FF FF FF FF
  can0  0CF022F0   [8]  00 00 00 00 00 00 FF E0
  can0  0CACFFF0   [8]  65 7D 3D FF C0 FF FF FF
  can0  0CCBF7F0   [8]  FF FF FF FF 00 00 00 00
  can0  0CFE41F0   [8]  01 03 03 00 FF FF FF FF
  can0  0CFE40F0   [8]  01 03 03 00 FF FF FF FF
  can0  0CFE48F0   [8]  00 00 00 00 00 00 01 14
  can0  0CFE49F0   [8]  FF FF FF FF 00 00 FF FC
  can0  0CF004F0   [8]  FF FF FF C8 18 FF FF FF
  can0  0CFE13F0   [8]  7D 7D 30 FF FF FF FF FF
  can0  0CFEF2F0   [8]  31 00 FF FF FF FF FF FF
  can0  0CFE45F0   [8]  0C 3F 79 19 7B FF FF FF
  can0  0CFE46F0   [8]  FA 3F FF FF FF FF FF FF
  can0  0CFE11F0   [8]  7D 7D 30 FF FF FF FF FF
  can0  0CFE12F0   [8]  7D 7D 30 FF FF FF FF FF
  can0  0CFE14F0   [8]  7D 7D 30 FF FF FF FF FF
  can0  0CFE17F0   [8]  7D 7D 30 FF FF FF FF FF
  can0  0CFE18F0   [8]  7D 7D 30 FF FF FF FF FF
  can0  0CF022F0   [8]  00 00 00 00 00 00 FF E0
  can0  0CACFFF0   [8]  63 7D 3D FF C0 FF FF FF
  can0  0CFE48F0   [8]  00 00 00 00 00 00 01 14
  can0  0CFE49F0   [8]  FF FF FF FF 00 00 FF FC
  can0  0CF004F0   [8]  FF FF FF C0 18 FF FF FF
  can0  0CFE13F0   [8]  7D 7D 30 FF FF FF FF FF
  can0  0CFEF2F0   [8]  31 00 FF FF FF FF FF FF
  can0  0CFE45F0   [8]  0C 3F 79 0B 7B FF FF FF
  can0  0CFE46F0   [8]  FA 3F FF FF FF FF FF FF
  can0  0CFE11F0   [8]  7D 7D 30 FF FF FF FF FF
  can0  0CFE12F0   [8]  7D 7D 30 FF FF FF FF FF
  can0  0CFE14F0   [8]  7D 7D 30 FF FF FF FF FF
  can0  0CFE17F0   [8]  7D 7D 30 FF FF FF FF FF
  can0  0CFE18F0   [8]  7D 7D 30 FF FF FF FF FF
  can0  0CF022F0   [8]  00 00 00 00 00 00 FF E0
  can0  0CACFFF0   [8]  63 7D 3D FF C0 FF FF FF
  can0  19F8054A   [8]  00 33 8C A2 50 20 27 32
  can0  19F8054A   [8]  01 18 00 E4 AE 34 D8 F9
  can0  19F8054A   [8]  02 36 07 00 56 3D 75 2A
  can0  19F8054A   [8]  03 1C C9 00 28 87 9C FF
  can0  19F8054A   [8]  04 FF FF FF FF 10 03 00
  can0  19F8054A   [8]  05 64 00 64 00 00 00 00
  can0  19F8054A   [8]  06 00 02 F0 FF 00 00 F0
  can0  19F8054A   [8]  07 FF 00 00 FF FF FF FF
  can0  19F8014A   [8]  8A B3 FC 1E CF C2 5F 03
  can0  19F8024A   [8]  8C 00 13 57 00 00 00 00
  can0  0CCBF0F7   [8]  12 00 8D 00 FF FF FF FF
  can0  0CCBF7F0   [8]  13 00 8D 00 00 00 00 00
  can0  0CFE48F0   [8]  00 00 00 00 00 00 01 14
  can0  0CFE49F0   [8]  FF FF FF FF 00 00 FF FC
  can0  0CF004F0   [8]  FF FF FF C0 18 FF FF FF
  can0  0CFE13F0   [8]  7D 7D 30 FF FF FF FF FF
  can0  0CFEF2F0   [8]  31 00 FF FF FF FF FF FF
  can0  0CFE45F0   [8]  0C 3F 79 19 7B FF FF FF
  can0  0CFE46F0   [8]  FA 3F FF FF FF FF FF FF
  can0  0CFE11F0   [8]  7D 7D 30 FF FF FF FF FF
  can0  0CFE12F0   [8]  7D 7D 30 FF FF FF FF FF
  can0  0CFE14F0   [8]  7D 7D 30 FF FF FF FF FF
  can0  0CFE17F0   [8]  7D 7D 30 FF FF FF FF FF
  can0  0CFE18F0   [8]  7D 7D 30 FF FF FF FF FF
  can0  0CF022F0   [8]  00 00 00 00 00 00 FF E0
  can0  0CACFFF0   [8]  64 7D 3D FF C0 FF FF FF
  can0  0CFE48F0   [8]  00 00 00 00 00 00 01 14
  can0  0CFE49F0   [8]  FF FF FF FF 00 00 FF FC
  can0  0CF004F0   [8]  FF FF FF C0 18 FF FF FF
  can0  0CFE13F0   [8]  7D 7D 30 FF FF FF FF FF
  can0  0CFEF2F0   [8]  31 00 FF FF FF FF FF FF
  can0  0CFE45F0   [8]  0C 3F 79 0B 7B FF FF FF
  can0  0CFE46F0   [8]  FA 3F FF FF FF FF FF FF
  can0  0CFE11F0   [8]  7D 7D 30 FF FF FF FF FF
  can0  0CFE12F0   [8]  7D 7D 30 FF FF FF FF FF
  can0  0CFE14F0   [8]  7D 7D 30 FF FF FF FF FF
  can0  0CFE17F0   [8]  7D 7D 30 FF FF FF FF FF
  can0  0CFE18F0   [8]  7D 7D 30 FF FF FF FF FF
  can0  0CF022F0   [8]  00 00 00 00 00 00 FF E0
  can0  0CACFFF0   [8]  64 7D 3D FF C0 FF FF FF
  can0  0CFE48F0   [8]  00 00 00 00 00 00 01 14
  can0  0CFE49F0   [8]  FF FF FF FF 00 00 FF FC
  can0  0CF004F0   [8]  FF FF FF B8 18 FF FF FF
  can0  0CFE13F0   [8]  7D 7D 30 FF FF FF FF FF
  can0  0CFEF2F0   [8]  31 00 FF FF FF FF FF FF
  can0  0CFE45F0   [8]  0C 3F 79 12 7B FF FF FF
  can0  0CFE46F0   [8]  FA 3F FF FF FF FF FF FF
  can0  0CFE11F0   [8]  7D 7D 30 FF FF FF FF FF
  can0  0CFE12F0   [8]  7D 7D 30 FF FF FF FF FF
  can0  0CFE14F0   [8]  7D 7D 30 FF FF FF FF FF
  can0  0CFE17F0   [8]  7D 7D 30 FF FF FF FF FF
  can0  0CFE18F0   [8]  7D 7D 30 FF FF FF FF FF
  can0  0CF022F0   [8]  00 00 00 00 00 00 FF E0
  can0  0CFEE7F0   [8]  16 28 00 00 FF FF FF FF
  can0  0CACFFF0   [8]  63 7D 3D FF C0 FF FF FF
  can0  0CFD02F0   [8]  FF FF FF FF FF FF 00 FD
  can0  0CFE48F0   [8]  00 00 00 00 00 00 01 14
  can0  0CFE49F0   [8]  FF FF FF FF 00 00 FF FC
  can0  0CF004F0   [8]  FF FF FF A8 18 FF FF FF
  can0  0CFE13F0   [8]  7D 7D 30 FF FF FF FF FF
  can0  0CFEF2F0   [8]  31 00 FF FF FF FF FF FF
  can0  0CFE45F0   [8]  0C 3F 79 19 7B FF FF FF
  can0  0CFE46F0   [8]  FA 3F FF FF FF FF FF FF
  can0  0CFE11F0   [8]  7D 7D 30 FF FF FF FF FF
  can0  0CFE12F0   [8]  7D 7D 30 FF FF FF FF FF
  can0  0CFE14F0   [8]  7D 7D 30 FF FF FF FF FF
  can0  0CFE17F0   [8]  7D 7D 30 FF FF FF FF FF
  can0  0CFE18F0   [8]  7D 7D 30 FF FF FF FF FF
  can0  0CF022F0   [8]  00 00 00 00 00 00 FF E0
  can0  0CACFFF0   [8]  64 7D 3D FF C0 FF FF FF
  can0  19F8014A   [8]  90 B3 FC 1E D6 C2 5F 03
  can0  19F8024A   [8]  8D 00 13 57 02 00 00 00
  can0  0CFE48F0   [8]  00 00 00 00 00 00 01 14
  can0  0CFE49F0   [8]  FF FF FF FF 00 00 FF FC
  can0  0CF004F0   [8]  FF FF FF A0 18 FF FF FF
  can0  0CFE13F0   [8]  7D 7D 30 FF FF FF FF FF
  can0  0CFEF2F0   [8]  31 00 FF FF FF FF FF FF
  can0  0CFE45F0   [8]  0C 3F 79 19 7B FF FF FF
  can0  0CFE46F0   [8]  FA 3F FF FF FF FF FF FF
  can0  0CFE11F0   [8]  7D 7D 30 FF FF FF FF FF
  can0  0CFE12F0   [8]  7D 7D 30 FF FF FF FF FF
  can0  0CFE14F0   [8]  7D 7D 30 FF FF FF FF FF
  can0  0CFE17F0   [8]  7D 7D 30 FF FF FF FF FF
  can0  0CFE18F0   [8]  7D 7D 30 FF FF FF FF FF
  can0  0CF022F0   [8]  00 00 00 00 00 00 FF E0
  can0  0CACFFF0   [8]  64 7D 3D FF C0 FF FF FF
  can0  0CFE48F0   [8]  00 00 00 00 00 00 01 14
  can0  0CFE49F0   [8]  FF FF FF FF 00 00 FF FC
  can0  0CF004F0   [8]  FF FF FF 98 18 FF FF FF
  can0  0CFE13F0   [8]  7D 7D 30 FF FF FF FF FF
  can0  0CFEF2F0   [8]  31 00 FF FF FF FF FF FF
  can0  0CFE45F0   [8]  0C 3F 79 FA 7A FF FF FF
  can0  0CFE46F0   [8]  FA 3F FF FF FF FF FF FF
  can0  0CFE11F0   [8]  7D 7D 30 FF FF FF FF FF
  can0  0CFE12F0   [8]  7D 7D 30 FF FF FF FF FF
  can0  0CFE14F0   [8]  7D 7D 30 FF FF FF FF FF
  can0  0CFE17F0   [8]  7D 7D 30 FF FF FF FF FF
  can0  0CFE18F0   [8]  7D 7D 30 FF FF FF FF FF
  can0  0CF022F0   [8]  00 00 00 00 00 00 FF E0
  can0  0CACFFF0   [8]  63 7D 3D FF C0 FF FF FF
  can0  0CFE48F0   [8]  00 00 00 00 00 00 01 14
  can0  0CFE49F0   [8]  FF FF FF FF 00 00 FF FC
  can0  0CF004F0   [8]  FF FF FF 90 18 FF FF FF
  can0  0CFE13F0   [8]  7D 7D 30 FF FF FF FF FF
  can0  0CFEF2F0   [8]  31 00 FF FF FF FF FF FF
  can0  0CFE45F0   [8]  0C 3F 79 19 7B FF FF FF
  can0  0CFE46F0   [8]  FA 3F FF FF FF FF FF FF
  can0  0CFE11F0   [8]  7D 7D 30 FF FF FF FF FF
  can0  0CFE12F0   [8]  7D 7D 30 FF FF FF FF FF
  can0  0CFE14F0   [8]  7D 7D 30 FF FF FF FF FF
  can0  0CFE17F0   [8]  7D 7D 30 FF FF FF FF FF
  can0  0CFE18F0   [8]  7D 7D 30 FF FF FF FF FF
  can0  0CF022F0   [8]  00 00 00 00 00 00 FF E0
  can0  0CACFFF0   [8]  64 7D 3D FF C0 FF FF FF
  can0  0CFE48F0   [8]  00 00 00 00 00 00 01 14
  can0  0CFE49F0   [8]  FF FF FF FF 00 00 FF FC
  can0  0CF004F0   [8]  FF FF FF 98 18 FF FF FF
  can0  0CFE13F0   [8]  7D 7D 30 FF FF FF FF FF
  can0  19F8014A   [8]  96 B3 FC 1E DC C2 5F 03
  can0  19F8024A   [8]  8D 00 13 57 02 00 00 00
  can0  0CFEF2F0   [8]  31 00 FF FF FF FF FF FF
  can0  0CFE45F0   [8]  0C 3F 79 FA 7A FF FF FF
  can0  0CFE46F0   [8]  FA 3F FF FF FF FF FF FF
  can0  0CFE11F0   [8]  7D 7D 30 FF FF FF FF FF
  can0  0CFE12F0   [8]  7D 7D 30 FF FF FF FF FF
  can0  0CFE14F0   [8]  7D 7D 30 FF FF FF FF FF
  can0  0CFE17F0   [8]  7D 7D 30 FF FF FF FF FF
  can0  0CFE18F0   [8]  7D 7D 30 FF FF FF FF FF
  can0  0CF022F0   [8]  00 00 00 00 00 00 FF E0
  can0  0CACFFF0   [8]  63 7D 3D FF C0 FF FF FF
  can0  0CFE41F0   [8]  01 03 03 00 FF FF FF FF
  can0  0CFE40F0   [8]  01 03 03 00 FF FF FF FF
  can0  0CFE48F0   [8]  00 00 00 00 00 00 01 14
  can0  0CFE49F0   [8]  FF FF FF FF 00 00 FF FC
  can0  0CF004F0   [8]  FF FF FF 90 18 FF FF FF
  can0  0CFE13F0   [8]  7D 7D 30 FF FF FF FF FF
  can0  0CFEF2F0   [8]  32 00 FF FF FF FF FF FF
  can0  0CFE45F0   [8]  0C 3F 79 0F 7B FF FF FF
  can0  0CFE46F0   [8]  FA 3F FF FF FF FF FF FF
  can0  0CFE11F0   [8]  7D 7D 30 FF FF FF FF FF
  can0  0CFE12F0   [8]  7D 7D 30 FF FF FF FF FF
  can0  0CFE14F0   [8]  7D 7D 30 FF FF FF FF FF
  can0  0CFE17F0   [8]  7D 7D 30 FF FF FF FF FF
  can0  0CFE18F0   [8]  7D 7D 30 FF FF FF FF FF
  can0  0CF022F0   [8]  00 00 00 00 00 00 FF E0
  can0  0CACFFF0   [8]  64 7D 3D FF C0 FF FF FF
  can0  0CFE48F0   [8]  00 00 00 00 00 00 01 14
  can0  0CFE49F0   [8]  FF FF FF FF 00 00 FF FC
  can0  0CF004F0   [8]  FF FF FF 90 18 FF FF FF
  can0  0CFE13F0   [8]  7D 7D 30 FF FF FF FF FF
  can0  0CFEF2F0   [8]  32 00 FF FF FF FF FF FF
  can0  0CFE45F0   [8]  0C 3F 79 08 7B FF FF FF
  can0  0CFE46F0   [8]  FA 3F FF FF FF FF FF FF
  can0  0CFE11F0   [8]  7D 7D 30 FF FF FF FF FF
  can0  0CFE12F0   [8]  7D 7D 30 FF FF FF FF FF
  can0  0CFE14F0   [8]  7D 7D 30 FF FF FF FF FF
  can0  0CFE17F0   [8]  7D 7D 30 FF FF FF FF FF
  can0  0CFE18F0   [8]  7D 7D 30 FF FF FF FF FF
  can0  0CF022F0   [8]  00 00 00 00 00 00 FF E0
  can0  0CACFFF0   [8]  63 7D 3D FF C0 FF FF FF
  can0  0CCBF0F7   [8]  12 00 8D 00 FF FF FF FF
  can0  0CCBF7F0   [8]  13 00 8D 00 00 00 00 00
  can0  0CFE48F0   [8]  00 00 00 00 00 00 01 14
  can0  0CFE49F0   [8]  FF FF FF FF 00 00 FF FC
  can0  0CF004F0   [8]  FF FF FF 98 18 FF FF FF
  can0  0CFE13F0   [8]  7D 7D 30 FF FF FF FF FF
  can0  0CFEF2F0   [8]  32 00 FF FF FF FF FF FF
  can0  0CFE45F0   [8]  0C 3F 79 19 7B FF FF FF
  can0  0CFE46F0   [8]  FA 3F FF FF FF FF FF FF
  can0  0CFE11F0   [8]  7D 7D 30 FF FF FF FF FF
  can0  0CFE12F0   [8]  7D 7D 30 FF FF FF FF FF
  can0  0CFE14F0   [8]  7D 7D 30 FF FF FF FF FF
  can0  0CFE17F0   [8]  7D 7D 30 FF FF FF FF FF
  can0  0CFE18F0   [8]  7D 7D 30 FF FF FF FF FF
  can0  0CF022F0   [8]  00 00 00 00 00 00 FF E0
  can0  0CACFFF0   [8]  64 7D 3D FF C0 FF FF FF
  can0  19F8054A   [8]  00 33 8D A2 50 30 4E 32
  can0  19F8054A   [8]  01 18 C0 AB C6 DC DC F9
  can0  19F8054A   [8]  02 36 07 00 B2 8A 94 2F
  can0  19F8054A   [8]  03 1C C9 00 28 5D A3 FF
  can0  19F8054A   [8]  04 FF FF FF FF 10 03 00
  can0  19F8054A   [8]  05 64 00 64 00 00 00 00
  can0  19F8054A   [8]  06 00 02 F0 FF 00 00 F0
  can0  19F8054A   [8]  07 FF 00 00 FF FF FF FF
  can0  19F8014A   [8]  9D B3 FC 1E E5 C2 5F 03
  can0  19F8024A   [8]  8D 00 13 57 02 00 00 00
  can0  0CFE48F0   [8]  00 00 00 00 00 00 01 14
  can0  0CFE49F0   [8]  FF FF FF FF 00 00 FF FC
  can0  0CF004F0   [8]  FF FF FF A8 18 FF FF FF
  can0  0CFE13F0   [8]  7D 7D 30 FF FF FF FF FF
  can0  0CFEF2F0   [8]  32 00 FF FF FF FF FF FF
  can0  0CFE45F0   [8]  0C 3F 79 19 7B FF FF FF
  can0  0CFE46F0   [8]  FA 3F FF FF FF FF FF FF
  can0  0CFE11F0   [8]  7D 7D 30 FF FF FF FF FF
  can0  0CFE12F0   [8]  7D 7D 30 FF FF FF FF FF
  can0  0CFE14F0   [8]  7D 7D 30 FF FF FF FF FF
  can0  0CFE17F0   [8]  7D 7D 30 FF FF FF FF FF
  can0  0CFE18F0   [8]  7D 7D 30 FF FF FF FF FF
  can0  0CF022F0   [8]  00 00 00 00 00 00 FF E0
  can0  0CACFFF0   [8]  64 7D 3D FF C0 FF FF FF
  can0  0CFE48F0   [8]  00 00 00 00 00 00 01 14
  can0  0CFE49F0   [8]  FF FF FF FF 00 00 FF FC
  can0  0CF004F0   [8]  FF FF FF 98 18 FF FF FF
  can0  0CFE13F0   [8]  7D 7D 30 FF FF FF FF FF
  can0  0CFEF2F0   [8]  32 00 FF FF FF FF FF FF
  can0  0CFE45F0   [8]  0C 3F 79 19 7B FF FF FF
  can0  0CFE46F0   [8]  FA 3F FF FF FF FF FF FF
  can0  0CFE11F0   [8]  7D 7D 30 FF FF FF FF FF
  can0  0CFE12F0   [8]  7D 7D 30 FF FF FF FF FF
  can0  0CFE14F0   [8]  7D 7D 30 FF FF FF FF FF
  can0  0CFE17F0   [8]  7D 7D 30 FF FF FF FF FF
  can0  0CFE18F0   [8]  7D 7D 30 FF FF FF FF FF
  can0  0CF022F0   [8]  00 00 00 00 00 00 FF E0
  can0  0CFEE7F0   [8]  16 28 00 00 FF FF FF FF
  can0  0CACFFF0   [8]  64 7D 3D FF C0 FF FF FF
  can0  0CFD02F0   [8]  FF FF FF FF FF FF 00 FD
  can0  0CFE48F0   [8]  00 00 00 00 00 00 01 14
  can0  0CFE49F0   [8]  FF FF FF FF 00 00 FF FC
  can0  0CF004F0   [8]  FF FF FF 98 18 FF FF FF
  can0  0CFE13F0   [8]  7D 7D 30 FF FF FF FF FF
  can0  0CFEF2F0   [8]  32 00 FF FF FF FF FF FF
  can0  0CFE45F0   [8]  0C 3F 79 0F 7B FF FF FF
  can0  0CFE46F0   [8]  FA 3F FF FF FF FF FF FF
  can0  0CFE11F0   [8]  7D 7D 30 FF FF FF FF FF
  can0  0CFE12F0   [8]  7D 7D 30 FF FF FF FF FF
  can0  0CFE14F0   [8]  7D 7D 30 FF FF FF FF FF
  can0  0CFE17F0   [8]  7D 7D 30 FF FF FF FF FF
  can0  0CFE18F0   [8]  7D 7D 30 FF FF FF FF FF
  can0  0CF022F0   [8]  00 00 00 00 00 00 FF E0
  can0  0CACFFF0   [8]  64 7D 3D FF C0 FF FF FF
  can0  0CCBFFF7   [8]  FE FF FF FF 00 00 00 00
  can0  19F8014A   [8]  A2 B3 FC 1E EB C2 5F 03
  can0  19F8024A   [8]  8E 00 13 57 02 00 00 00
  can0  0CFE48F0   [8]  00 00 00 00 00 00 01 14
  can0  0CFE49F0   [8]  FF FF FF FF 00 00 FF FC
  can0  0CF004F0   [8]  FF FF FF B8 18 FF FF FF
  can0  0CFE13F0   [8]  7D 7D 30 FF FF FF FF FF
  can0  0CFEF2F0   [8]  32 00 FF FF FF FF FF FF
  can0  0CFE45F0   [8]  0C 3F 79 0F 7B FF FF FF
  can0  0CFE46F0   [8]  FA 3F FF FF FF FF FF FF
  can0  0CFE11F0   [8]  7D 7D 30 FF FF FF FF FF
  can0  0CFE12F0   [8]  7D 7D 30 FF FF FF FF FF
  can0  0CFE14F0   [8]  7D 7D 30 FF FF FF FF FF
  can0  0CFE17F0   [8]  7D 7D 30 FF FF FF FF FF
  can0  0CFE18F0   [8]  7D 7D 30 FF FF FF FF FF
  can0  0CF022F0   [8]  00 00 00 00 00 00 FF E0
  can0  0CACFFF0   [8]  64 7D 3D FF C0 FF FF FF
  can0  0CFE48F0   [8]  00 00 00 00 00 00 01 14
  can0  0CFE49F0   [8]  FF FF FF FF 00 00 FF FC
  can0  0CF004F0   [8]  FF FF FF 18 19 FF FF FF
  can0  0CFE13F0   [8]  7D 7D 30 FF FF FF FF FF
  can0  0CFEF2F0   [8]  32 00 FF FF FF FF FF FF
  can0  0CFE45F0   [8]  0C 3F 79 19 7B FF FF FF
  can0  0CFE46F0   [8]  FA 3F FF FF FF FF FF FF
  can0  0CFE11F0   [8]  7D 7D 30 FF FF FF FF FF
  can0  0CFE12F0   [8]  7D 7D 30 FF FF FF FF FF
  can0  0CFE14F0   [8]  7D 7D 30 FF FF FF FF FF
  can0  0CFE17F0   [8]  7D 7D 30 FF FF FF FF FF
  can0  0CFE18F0   [8]  7D 7D 30 FF FF FF FF FF
  can0  0CF022F0   [8]  00 00 00 00 00 00 FF E0
  can0  0CACFFF0   [8]  64 7D 3D FF C0 FF FF FF
  can0  0CFE48F0   [8]  00 00 00 00 00 00 01 14
  can0  0CFE49F0   [8]  FF FF FF FF 00 00 FF FC
  can0  0CF004F0   [8]  FF FF FF F8 18 FF FF FF
  can0  0CFE13F0   [8]  7D 7D 30 FF FF FF FF FF
  can0  0CFEF2F0   [8]  32 00 FF FF FF FF FF FF
  can0  0CFE45F0   [8]  0C 3F 79 24 7B FF FF FF
  can0  0CFE46F0   [8]  FA 3F FF FF FF FF FF FF
  can0  0CFE11F0   [8]  7D 7D 30 FF FF FF FF FF
  can0  0CFE12F0   [8]  7D 7D 30 FF FF FF FF FF
  can0  0CFE14F0   [8]  7D 7D 30 FF FF FF FF FF
  can0  0CFE17F0   [8]  7D 7D 30 FF FF FF FF FF
  can0  0CFE18F0   [8]  7D 7D 30 FF FF FF FF FF
  can0  0CF022F0   [8]  00 00 00 00 00 00 FF E0
  can0  0CACFFF0   [8]  63 7D 3D FF C0 FF FF FF
  can0  0CFE48F0   [8]  00 00 00 00 00 00 01 14
  can0  0CFE49F0   [8]  FF FF FF FF 00 00 FF FC
  can0  0CF004F0   [8]  FF FF FF D8 18 FF FF FF
  can0  0CFE13F0   [8]  7D 7D 30 FF FF FF FF FF
  can0  0CFEF2F0   [8]  30 00 FF FF FF FF FF FF
  can0  0CFE45F0   [8]  0C 3F 79 0F 7B FF FF FF
  can0  0CFE46F0   [8]  FA 3F FF FF FF FF FF FF
  can0  0CFE11F0   [8]  7D 7D 30 FF FF FF FF FF
  can0  0CFE12F0   [8]  7D 7D 30 FF FF FF FF FF
  can0  0CFE14F0   [8]  7D 7D 30 FF FF FF FF FF
  can0  0CFE17F0   [8]  7D 7D 30 FF FF FF FF FF
  can0  0CFE18F0   [8]  7D 7D 30 FF FF FF FF FF
  can0  0CF022F0   [8]  00 00 00 00 00 00 FF E0
  can0  0CACFFF0   [8]  63 7D 3D FF C0 FF FF FF
  can0  0CFE41F0   [8]  01 03 03 00 FF FF FF FF
  can0  0CFE40F0   [8]  01 03 03 00 FF FF FF FF
  can0  0CCBF7F0   [8]  FF FF FF FF 00 00 00 00
  can0  19F8014A   [8]  AA B3 FC 1E F2 C2 5F 03
  can0  19F8024A   [8]  8E 00 13 57 00 00 00 00
  can0  0CFE48F0   [8]  00 00 00 00 00 00 01 14
  can0  0CFE49F0   [8]  FF FF FF FF 00 00 FF FC
  can0  0CF004F0   [8]  FF FF FF F0 18 FF FF FF
  can0  0CFE13F0   [8]  7D 7D 30 FF FF FF FF FF
  can0  0CFEF2F0   [8]  30 00 FF FF FF FF FF FF
  can0  0CFE45F0   [8]  0C 3F 79 0F 7B FF FF FF
  can0  0CFE46F0   [8]  FA 3F FF FF FF FF FF FF
  can0  0CFE11F0   [8]  7D 7D 30 FF FF FF FF FF
  can0  0CFE12F0   [8]  7D 7D 30 FF FF FF FF FF
  can0  0CFE14F0   [8]  7D 7D 30 FF FF FF FF FF
  can0  0CFE17F0   [8]  7D 7D 30 FF FF FF FF FF
  can0  0CFE18F0   [8]  7D 7D 30 FF FF FF FF FF
  can0  0CF022F0   [8]  00 00 00 00 00 00 FF E0
  can0  0CACFFF0   [8]  65 7D 3D FF C0 FF FF FF
  can0  0CFE48F0   [8]  00 00 00 00 00 00 01 14
  can0  0CFE49F0   [8]  FF FF FF FF 00 00 FF FC
  can0  0CF004F0   [8]  FF FF FF E0 18 FF FF FF
  can0  0CFE13F0   [8]  7D 7D 30 FF FF FF FF FF
  can0  0CFEF2F0   [8]  30 00 FF FF FF FF FF FF
  can0  0CFE45F0   [8]  0C 3F 79 20 7B FF FF FF
  can0  0CFE46F0   [8]  FA 3F FF FF FF FF FF FF
  can0  0CFE11F0   [8]  7D 7D 30 FF FF FF FF FF
  can0  0CFE12F0   [8]  7D 7D 30 FF FF FF FF FF
  can0  0CFE14F0   [8]  7D 7D 30 FF FF FF FF FF
  can0  0CFE17F0   [8]  7D 7D 30 FF FF FF FF FF
  can0  0CFE18F0   [8]  7D 7D 30 FF FF FF FF FF
  can0  0CF022F0   [8]  00 00 00 00 00 00 FF E0
  can0  0CACFFF0   [8]  61 7D 3D FF C0 FF FF FF
  can0  0CFE48F0   [8]  00 00 00 00 00 00 01 14
  can0  0CFE49F0   [8]  FF FF FF FF 00 00 FF FC
  can0  0CF004F0   [8]  FF FF FF C8 18 FF FF FF
  can0  0CFE13F0   [8]  7D 7D 30 FF FF FF FF FF
  can0  0CCBF0F7   [8]  12 00 8D 00 FF FF FF FF
  can0  0CCBF7F0   [8]  13 00 8D 00 00 00 00 00
  can0  0CFEF2F0   [8]  2E 00 FF FF FF FF FF FF
  can0  0CFE45F0   [8]  0C 3F 79 FA 7A FF FF FF
  can0  0CFE46F0   [8]  FA 3F FF FF FF FF FF FF
  can0  0CFE11F0   [8]  7D 7D 30 FF FF FF FF FF
  can0  0CFE12F0   [8]  7D 7D 30 FF FF FF FF FF
  can0  0CFE14F0   [8]  7D 7D 30 FF FF FF FF FF
  can0  0CFE17F0   [8]  7D 7D 30 FF FF FF FF FF
  can0  0CFE18F0   [8]  7D 7D 30 FF FF FF FF FF
  can0  0CF022F0   [8]  00 00 00 00 00 00 FF E0
  can0  0CACFFF0   [8]  63 7D 3D FF C0 FF FF FF
  can0  0CFE48F0   [8]  00 00 00 00 00 00 01 14
  can0  0CFE49F0   [8]  FF FF FF FF 00 00 FF FC
  can0  0CF004F0   [8]  FF FF FF D8 18 FF FF FF
  can0  0CFE13F0   [8]  7D 7D 30 FF FF FF FF FF
  can0  0CFEF2F0   [8]  2E 00 FF FF FF FF FF FF
  can0  0CFE45F0   [8]  0C 3F 79 12 7B FF FF FF
  can0  0CFE46F0   [8]  FA 3F FF FF FF FF FF FF
  can0  0CFE11F0   [8]  7D 7D 30 FF FF FF FF FF
  can0  0CFE12F0   [8]  7D 7D 30 FF FF FF FF FF
  can0  0CFE14F0   [8]  7D 7D 30 FF FF FF FF FF
  can0  0CFE17F0   [8]  7D 7D 30 FF FF FF FF FF
  can0  0CFE18F0   [8]  7D 7D 30 FF FF FF FF FF
  can0  0CF022F0   [8]  00 00 00 00 00 00 FF E0
  can0  0CACFFF0   [8]  63 7D 3D FF C0 FF FF FF
  can0  19F8054A   [8]  00 33 8E A2 50 40 75 32
  can0  19F8054A   [8]  01 18 C0 DF A8 0D E1 F9
  can0  19F8054A   [8]  02 36 07 00 7A A2 3C 34
  can0  19F8054A   [8]  03 1C C9 00 48 10 A8 FF
  can0  19F8054A   [8]  04 FF FF FF FF 10 03 00
  can0  19F8054A   [8]  05 64 00 64 00 00 00 00
  can0  19F8054A   [8]  06 00 02 F0 FF 00 00 F0
  can0  19F8054A   [8]  07 FF 00 00 FF FF FF FF
  can0  19F8014A   [8]  AF B3 FC 1E F9 C2 5F 03
  can0  19F8024A   [8]  8E 00 13 57 02 00 00 00
  can0  0CFE48F0   [8]  00 00 00 00 00 00 01 14
  can0  0CFE49F0   [8]  FF FF FF FF 00 00 FF FC
  can0  0CF004F0   [8]  FF FF FF E8 18 FF FF FF
  can0  0CFE13F0   [8]  7D 7D 30 FF FF FF FF FF
  can0  0CFEF2F0   [8]  2E 00 FF FF FF FF FF FF
  can0  0CFE45F0   [8]  0C 3F 79 19 7B FF FF FF
  can0  0CFE46F0   [8]  FA 3F FF FF FF FF FF FF
  can0  0CFE11F0   [8]  7D 7D 30 FF FF FF FF FF
  can0  0CFE12F0   [8]  7D 7D 30 FF FF FF FF FF
  can0  0CFE14F0   [8]  7D 7D 30 FF FF FF FF FF
  can0  0CFE17F0   [8]  7D 7D 30 FF FF FF FF FF
  can0  0CFE18F0   [8]  7D 7D 30 FF FF FF FF FF
  can0  0CF022F0   [8]  00 00 00 00 00 00 FF E0
  can0  0CFEE7F0   [8]  16 28 00 00 FF FF FF FF
  can0  0CACFFF0   [8]  64 7D 3D FF C0 FF FF FF
  can0  0CFD02F0   [8]  FF FF FF FF FF FF 00 FD
  can0  0CFE48F0   [8]  00 00 00 00 00 00 01 14
  can0  0CFE49F0   [8]  FF FF FF FF 00 00 FF FC
  can0  0CF004F0   [8]  FF FF FF D8 18 FF FF FF
  can0  0CFE13F0   [8]  7D 7D 30 FF FF FF FF FF
  can0  0CFEF2F0   [8]  2E 00 FF FF FF FF FF FF
  can0  0CFE45F0   [8]  0C 3F 79 12 7B FF FF FF
  can0  0CFE46F0   [8]  FA 3F FF FF FF FF FF FF
  can0  0CFE11F0   [8]  7D 7D 30 FF FF FF FF FF
  can0  0CFE12F0   [8]  7D 7D 30 FF FF FF FF FF
  can0  0CFE14F0   [8]  7D 7D 30 FF FF FF FF FF
  can0  0CFE17F0   [8]  7D 7D 30 FF FF FF FF FF
  can0  0CFE18F0   [8]  7D 7D 30 FF FF FF FF FF
  can0  0CF022F0   [8]  00 00 00 00 00 00 FF E0
  can0  0CACFFF0   [8]  64 7D 3D FF C0 FF FF FF
  can0  0CFE48F0   [8]  00 00 00 00 00 00 01 14
  can0  0CFE49F0   [8]  FF FF FF FF 00 00 FF FC
  can0  0CF004F0   [8]  FF FF FF D0 18 FF FF FF
  can0  0CFE13F0   [8]  7D 7D 30 FF FF FF FF FF
  can0  0CFEF2F0   [8]  2E 00 FF FF FF FF FF FF
  can0  0CFE45F0   [8]  0C 3F 79 19 7B FF FF FF
  can0  0CFE46F0   [8]  FA 3F FF FF FF FF FF FF
  can0  0CFE11F0   [8]  7D 7D 30 FF FF FF FF FF
  can0  0CFE12F0   [8]  7D 7D 30 FF FF FF FF FF
  can0  0CFE14F0   [8]  7D 7D 30 FF FF FF FF FF
  can0  0CFE17F0   [8]  7D 7D 30 FF FF FF FF FF
  can0  0CFE18F0   [8]  7D 7D 30 FF FF FF FF FF
  can0  0CF022F0   [8]  00 00 00 00 00 00 FF E0
  can0  0CACFFF0   [8]  64 7D 3D FF C0 FF FF FF
  can0  19F8014A   [8]  B8 B3 FC 1E 01 C3 5F 03
  can0  19F8024A   [8]  8F 00 13 57 00 00 00 00
  can0  0CFE48F0   [8]  00 00 00 00 00 00 01 14
  can0  0CFE49F0   [8]  FF FF FF FF 00 00 FF FC
  can0  0CF004F0   [8]  FF FF FF C8 18 FF FF FF
  can0  0CFE13F0   [8]  7D 7D 30 FF FF FF FF FF
  can0  0CFEF2F0   [8]  2E 00 FF FF FF FF FF FF
  can0  0CFE45F0   [8]  0C 3F 79 19 7B FF FF FF
  can0  0CFE46F0   [8]  FA 3F FF FF FF FF FF FF
  can0  0CFE11F0   [8]  7D 7D 30 FF FF FF FF FF
  can0  0CFE12F0   [8]  7D 7D 30 FF FF FF FF FF
  can0  0CFE14F0   [8]  7D 7D 30 FF FF FF FF FF
  can0  0CFE17F0   [8]  7D 7D 30 FF FF FF FF FF
  can0  0CFE18F0   [8]  7D 7D 30 FF FF FF FF FF
  can0  0CF022F0   [8]  00 00 00 00 00 00 FF E0
  can0  0CACFFF0   [8]  64 7D 3D FF C0 FF FF FF
  can0  0CFE48F0   [8]  00 00 00 00 00 00 01 14
  can0  0CFE49F0   [8]  FF FF FF FF 00 00 FF FC
  can0  0CF004F0   [8]  FF FF FF C0 18 FF FF FF
  can0  0CFE13F0   [8]  7D 7D 30 FF FF FF FF FF
  can0  0CFEF2F0   [8]  2E 00 FF FF FF FF FF FF
  can0  0CFE45F0   [8]  0C 3F 79 19 7B FF FF FF
  can0  0CFE46F0   [8]  FA 3F FF FF FF FF FF FF
  can0  0CFE11F0   [8]  7D 7D 30 FF FF FF FF FF
  can0  0CFE12F0   [8]  7D 7D 30 FF FF FF FF FF
  can0  0CFE14F0   [8]  7D 7D 30 FF FF FF FF FF
  can0  0CFE17F0   [8]  7D 7D 30 FF FF FF FF FF
  can0  0CFE18F0   [8]  7D 7D 30 FF FF FF FF FF
  can0  0CF022F0   [8]  00 00 00 00 00 00 FF E0
  can0  0CACFFF0   [8]  64 7D 3D FF C0 FF FF FF
  can0  0CFE48F0   [8]  00 00 00 00 00 00 01 14
  can0  0CFE49F0   [8]  FF FF FF FF 00 00 FF FC
  can0  0CF004F0   [8]  FF FF FF B8 18 FF FF FF
  can0  0CFE13F0   [8]  7D 7D 30 FF FF FF FF FF
  can0  0CFEF2F0   [8]  2E 00 FF FF FF FF FF FF
  can0  0CFE45F0   [8]  0C 3F 79 19 7B FF FF FF
  can0  0CFE46F0   [8]  FA 3F FF FF FF FF FF FF
  can0  0CFE11F0   [8]  7D 7D 30 FF FF FF FF FF
  can0  0CFE12F0   [8]  7D 7D 30 FF FF FF FF FF
  can0  0CFE14F0   [8]  7D 7D 30 FF FF FF FF FF
  can0  0CFE17F0   [8]  7D 7D 30 FF FF FF FF FF
  can0  0CFE18F0   [8]  7D 7D 30 FF FF FF FF FF
  can0  0CF022F0   [8]  00 00 00 00 00 00 FF E0
  can0  0CACFFF0   [8]  64 7D 3D FF C0 FF FF FF
  can0  0CFE41F0   [8]  01 03 03 00 FF FF FF FF
  can0  0CFE40F0   [8]  01 03 03 00 FF FF FF FF
  can0  0CFE48F0   [8]  00 00 00 00 00 00 01 14
  can0  0CFE49F0   [8]  FF FF FF FF 00 00 FF FC
  can0  0CF004F0   [8]  FF FF FF B0 18 FF FF FF
  can0  0CFE13F0   [8]  7D 7D 30 FF FF FF FF FF
  can0  0CFEF2F0   [8]  2E 00 FF FF FF FF FF FF
  can0  0CFE45F0   [8]  0C 3F 79 12 7B FF FF FF
  can0  0CFE46F0   [8]  FA 3F FF FF FF FF FF FF
  can0  0CFE11F0   [8]  7D 7D 30 FF FF FF FF FF
  can0  0CFE12F0   [8]  7D 7D 30 FF FF FF FF FF
  can0  0CFE14F0   [8]  7D 7D 30 FF FF FF FF FF
  can0  0CFE17F0   [8]  7D 7D 30 FF FF FF FF FF
  can0  0CFE18F0   [8]  7D 7D 30 FF FF FF FF FF
  can0  0CF022F0   [8]  00 00 00 00 00 00 FF E0
  can0  0CACFFF0   [8]  64 7D 3D FF C0 FF FF FF
  can0  19F8014A   [8]  BE B3 FC 1E 08 C3 5F 03
  can0  19F8024A   [8]  8F 00 13 57 00 00 00 00
  can0  0CFE48F0   [8]  00 00 00 00 00 00 01 14
  can0  0CFE49F0   [8]  FF FF FF FF 00 00 FF FC
  can0  0CF004F0   [8]  FF FF FF B0 18 FF FF FF
  can0  0CFE13F0   [8]  7D 7D 30 FF FF FF FF FF
  can0  0CFEF2F0   [8]  2E 00 FF FF FF FF FF FF
  can0  0CFE45F0   [8]  0C 3F 79 12 7B FF FF FF
  can0  0CFE46F0   [8]  FA 3F FF FF FF FF FF FF
  can0  0CFE11F0   [8]  7D 7D 30 FF FF FF FF FF
  can0  0CFE12F0   [8]  7D 7D 30 FF FF FF FF FF
  can0  0CFE14F0   [8]  7D 7D 30 FF FF FF FF FF
  can0  0CFE17F0   [8]  7D 7D 30 FF FF FF FF FF
  can0  0CFE18F0   [8]  7D 7D 30 FF FF FF FF FF
  can0  0CF022F0   [8]  00 00 00 00 00 00 FF E0
  can0  0CACFFF0   [8]  64 7D 3D FF C0 FF FF FF
  can0  0CFE48F0   [8]  00 00 00 00 00 00 01 14
  can0  0CFE49F0   [8]  FF FF FF FF 00 00 FF FC
  can0  0CF004F0   [8]  FF FF FF B8 18 FF FF FF
  can0  0CFE13F0   [8]  7D 7D 30 FF FF FF FF FF
  can0  0CCBF0F7   [8]  12 00 8D 00 FF FF FF FF
  can0  0CFEF2F0   [8]  2E 00 FF FF FF FF FF FF
  can0  0CFE45F0   [8]  0C 3F 79 19 7B FF FF FF
  can0  0CFE46F0   [8]  FA 3F FF FF FF FF FF FF
  can0  0CFE11F0   [8]  7D 7D 30 FF FF FF FF FF
  can0  0CFE12F0   [8]  7D 7D 30 FF FF FF FF FF
  can0  0CFE14F0   [8]  7D 7D 30 FF FF FF FF FF
  can0  0CFE17F0   [8]  7D 7D 30 FF FF FF FF FF
  can0  0CFE18F0   [8]  7D 7D 30 FF FF FF FF FF
  can0  0CF022F0   [8]  00 00 00 00 00 00 FF E0
  can0  0CACFFF0   [8]  64 7D 3D FF C0 FF FF FF
  can0  0CCBF7F0   [8]  13 00 8D 00 00 00 00 00
  can0  0CFE48F0   [8]  00 00 00 00 00 00 01 14
  can0  0CFE49F0   [8]  FF FF FF FF 00 00 FF FC
  can0  0CF004F0   [8]  FF FF FF C0 18 FF FF FF
  can0  0CFE13F0   [8]  7D 7D 30 FF FF FF FF FF
  can0  0CFEF2F0   [8]  2F 00 FF FF FF FF FF FF
  can0  0CFE45F0   [8]  0C 3F 79 24 7B FF FF FF
  can0  0CFE46F0   [8]  FA 3F FF FF FF FF FF FF
  can0  0CFE11F0   [8]  7D 7D 30 FF FF FF FF FF
  can0  0CFE12F0   [8]  7D 7D 30 FF FF FF FF FF
  can0  0CFE14F0   [8]  7D 7D 30 FF FF FF FF FF
  can0  0CFE17F0   [8]  7D 7D 30 FF FF FF FF FF
  can0  0CFE18F0   [8]  7D 7D 30 FF FF FF FF FF
  can0  0CF022F0   [8]  00 00 00 00 00 00 FF E0
  can0  0CACFFF0   [8]  64 7D 3D FF C0 FF FF FF
  can0  0CFE48F0   [8]  00 00 00 00 00 00 01 14
  can0  0CFE49F0   [8]  FF FF FF FF 00 00 FF FC
  can0  0CF004F0   [8]  FF FF FF C0 18 FF FF FF
  can0  0CFE13F0   [8]  7D 7D 30 FF FF FF FF FF
  can0  19F8054A   [8]  00 33 8F A2 50 50 9C 32
  can0  19F8054A   [8]  01 18 00 72 5B F1 E5 F9
  can0  19F8054A   [8]  02 36 07 F8 41 BA E4 38
  can0  19F8054A   [8]  03 1C C9 00 38 C5 AD FF
  can0  19F8054A   [8]  04 FF FF FF FF 10 03 00
  can0  19F8054A   [8]  05 64 00 64 00 00 00 00
  can0  19F8054A   [8]  06 00 02 F0 FF 00 00 F0
  can0  19F8054A   [8]  07 FF 00 00 FF FF FF FF
  can0  19F8014A   [8]  C5 B3 FC 1E 0C C3 5F 03
  can0  19F8024A   [8]  8F 00 13 57 02 00 00 00
  can0  0CFEF2F0   [8]  2F 00 FF FF FF FF FF FF
  can0  0CFE45F0   [8]  0C 3F 79 32 7B FF FF FF
  can0  0CFE46F0   [8]  FA 3F FF FF FF FF FF FF
  can0  0CFE11F0   [8]  7D 7D 30 FF FF FF FF FF
  can0  0CFE12F0   [8]  7D 7D 30 FF FF FF FF FF
  can0  0CFE14F0   [8]  7D 7D 30 FF FF FF FF FF
  can0  0CFE17F0   [8]  7D 7D 30 FF FF FF FF FF
  can0  0CFE18F0   [8]  7D 7D 30 FF FF FF FF FF
  can0  0CF022F0   [8]  00 00 00 00 00 00 FF E0
  can0  0CFEE7F0   [8]  16 28 00 00 FF FF FF FF
  can0  0CACFFF0   [8]  64 7D 3D FF C0 FF FF FF
  can0  0CFD02F0   [8]  FF FF FF FF FF FF 00 FD
  can0  0CCBFFF7   [8]  FE FF FF FF 00 00 00 00
  can0  0CFE48F0   [8]  00 00 00 00 00 00 01 14
  can0  0CFE49F0   [8]  FF FF FF FF 00 00 FF FC
  can0  0CF004F0   [8]  FF FF FF C8 18 FF FF FF
  can0  0CFE13F0   [8]  7D 7D 30 FF FF FF FF FF
  can0  0CFEF2F0   [8]  2F 00 FF FF FF FF FF FF
  can0  0CFE45F0   [8]  0C 3F 79 20 7B FF FF FF
  can0  0CFE46F0   [8]  FA 3F FF FF FF FF FF FF
  can0  0CFE11F0   [8]  7D 7D 30 FF FF FF FF FF
  can0  0CFE12F0   [8]  7D 7D 30 FF FF FF FF FF
  can0  0CFE14F0   [8]  7D 7D 30 FF FF FF FF FF
  can0  0CFE17F0   [8]  7D 7D 30 FF FF FF FF FF
  can0  0CFE18F0   [8]  7D 7D 30 FF FF FF FF FF
  can0  0CF022F0   [8]  00 00 00 00 00 00 FF E0
  can0  0CACFFF0   [8]  63 7D 3D FF C0 FF FF FF
  can0  0CFE48F0   [8]  00 00 00 00 00 00 01 14
  can0  0CFE49F0   [8]  FF FF FF FF 00 00 FF FC
  can0  0CF004F0   [8]  FF FF FF C0 18 FF FF FF
  can0  0CFE13F0   [8]  7D 7D 30 FF FF FF FF FF
  can0  0CFEF2F0   [8]  2F 00 FF FF FF FF FF FF
  can0  0CFE45F0   [8]  0C 3F 79 12 7B FF FF FF
  can0  0CFE46F0   [8]  FA 3F FF FF FF FF FF FF
  can0  0CFE11F0   [8]  7D 7D 30 FF FF FF FF FF
  can0  0CFE12F0   [8]  7D 7D 30 FF FF FF FF FF
  can0  0CFE14F0   [8]  7D 7D 30 FF FF FF FF FF
  can0  0CFE17F0   [8]  7D 7D 30 FF FF FF FF FF
  can0  0CFE18F0   [8]  7D 7D 30 FF FF FF FF FF
  can0  0CF022F0   [8]  00 00 00 00 00 00 FF E0
  can0  0CACFFF0   [8]  63 7D 3D FF C0 FF FF FF
  can0  0CFE48F0   [8]  00 00 00 00 00 00 01 14
  can0  0CFE49F0   [8]  FF FF FF FF 00 00 FF FC
  can0  0CF004F0   [8]  FF FF FF B8 18 FF FF FF
  can0  0CFE13F0   [8]  7D 7D 30 FF FF FF FF FF
  can0  0CFEF2F0   [8]  2F 00 FF FF FF FF FF FF
  can0  0CFE45F0   [8]  0C 3F 79 32 7B FF FF FF
  can0  0CFE46F0   [8]  FA 3F FF FF FF FF FF FF
  can0  0CFE11F0   [8]  7D 7D 30 FF FF FF FF FF
  can0  0CFE12F0   [8]  7D 7D 30 FF FF FF FF FF
  can0  0CFE14F0   [8]  7D 7D 30 FF FF FF FF FF
  can0  0CFE17F0   [8]  7D 7D 30 FF FF FF FF FF
  can0  0CFE18F0   [8]  7D 7D 30 FF FF FF FF FF
  can0  0CF022F0   [8]  00 00 00 00 00 00 FF E0
  can0  0CACFFF0   [8]  64 7D 3D FF C0 FF FF FF
  can0  19F8014A   [8]  CD B3 FC 1E 15 C3 5F 03
  can0  19F8024A   [8]  90 00 13 57 04 00 00 00
  can0  0CFE48F0   [8]  00 00 00 00 00 00 01 14
  can0  0CFE49F0   [8]  FF FF FF FF 00 00 FF FC
  can0  0CF004F0   [8]  FF FF FF C0 18 FF FF FF
  can0  0CFE13F0   [8]  7D 7D 30 FF FF FF FF FF
  can0  0CFEF2F0   [8]  2E 00 FF FF FF FF FF FF
  can0  0CFE45F0   [8]  0C 3F 79 0F 7B FF FF FF
  can0  0CFE46F0   [8]  FA 3F FF FF FF FF FF FF
  can0  0CFE11F0   [8]  7D 7D 30 FF FF FF FF FF
  can0  0CFE12F0   [8]  7D 7D 30 FF FF FF FF FF
  can0  0CFE14F0   [8]  7D 7D 30 FF FF FF FF FF
  can0  0CFE17F0   [8]  7D 7D 30 FF FF FF FF FF
  can0  0CFE18F0   [8]  7D 7D 30 FF FF FF FF FF
  can0  0CF022F0   [8]  00 00 00 00 00 00 FF E0
  can0  0CACFFF0   [8]  62 7D 3D FF C0 FF FF FF
  can0  0CFE48F0   [8]  00 00 00 00 00 00 01 14
  can0  0CFE49F0   [8]  FF FF FF FF 00 00 FF FC
  can0  0CF004F0   [8]  FF FF FF C0 18 FF FF FF
  can0  0CFE13F0   [8]  7D 7D 30 FF FF FF FF FF
  can0  0CFEF2F0   [8]  2E 00 FF FF FF FF FF FF
  can0  0CFE45F0   [8]  0C 3F 79 12 7B FF FF FF
  can0  0CFE46F0   [8]  FA 3F FF FF FF FF FF FF
  can0  0CFE11F0   [8]  7D 7D 30 FF FF FF FF FF
  can0  0CFE12F0   [8]  7D 7D 30 FF FF FF FF FF
  can0  0CFE14F0   [8]  7D 7D 30 FF FF FF FF FF
  can0  0CFE17F0   [8]  7D 7D 30 FF FF FF FF FF
  can0  0CFE18F0   [8]  7D 7D 30 FF FF FF FF FF
  can0  0CF022F0   [8]  00 00 00 00 00 00 FF E0
  can0  0CACFFF0   [8]  64 7D 3D FF C0 FF FF FF
  can0  0CFE41F0   [8]  01 03 03 00 FF FF FF FF
  can0  0CFE40F0   [8]  01 03 03 00 FF FF FF FF
  can0  0CCBF7F0   [8]  FF FF FF FF 00 00 00 00
  can0  0CFE48F0   [8]  00 00 00 00 00 00 01 14
  can0  0CFE49F0   [8]  FF FF FF FF 00 00 FF FC
  can0  0CF004F0   [8]  FF FF FF B8 18 FF FF FF
  can0  0CFE13F0   [8]  7D 7D 30 FF FF FF FF FF
  can0  0CFEF2F0   [8]  2E 00 FF FF FF FF FF FF
  can0  0CFE45F0   [8]  0C 3F 79 19 7B FF FF FF
  can0  0CFE46F0   [8]  FA 3F FF FF FF FF FF FF
  can0  0CFE11F0   [8]  7D 7D 30 FF FF FF FF FF
  can0  0CFE12F0   [8]  7D 7D 30 FF FF FF FF FF
  can0  0CFE14F0   [8]  7D 7D 30 FF FF FF FF FF
  can0  0CFE17F0   [8]  7D 7D 30 FF FF FF FF FF
  can0  0CFE18F0   [8]  7D 7D 30 FF FF FF FF FF
  can0  0CF022F0   [8]  00 00 00 00 00 00 FF E0
  can0  0CACFFF0   [8]  62 7D 3D FF C0 FF FF FF
  can0  0CFE48F0   [8]  00 00 00 00 00 00 01 14
  can0  0CFE49F0   [8]  FF FF FF FF 00 00 FF FC
  can0  0CF004F0   [8]  FF FF FF B0 18 FF FF FF
  can0  0CFE13F0   [8]  7D 7D 30 FF FF FF FF FF
  can0  0CFEF2F0   [8]  2E 00 FF FF FF FF FF FF
  can0  0CFE45F0   [8]  0C 3F 79 19 7B FF FF FF
  can0  0CFE46F0   [8]  FA 3F FF FF FF FF FF FF
  can0  0CFE11F0   [8]  7D 7D 30 FF FF FF FF FF
  can0  0CFE12F0   [8]  7D 7D 30 FF FF FF FF FF
  can0  0CFE14F0   [8]  7D 7D 30 FF FF FF FF FF
  can0  0CFE17F0   [8]  7D 7D 30 FF FF FF FF FF
  can0  0CFE18F0   [8]  7D 7D 30 FF FF FF FF FF
  can0  0CF022F0   [8]  00 00 00 00 00 00 FF E0
  can0  0CACFFF0   [8]  64 7D 3D FF C0 FF FF FF
  can0  19F8014A   [8]  D3 B3 FC 1E 1B C3 5F 03
  can0  19F8024A   [8]  90 00 13 57 00 00 00 00
  can0  0CFE48F0   [8]  00 00 00 00 00 00 01 14
  can0  0CFE49F0   [8]  FF FF FF FF 00 00 FF FC
  can0  0CF004F0   [8]  FF FF FF B8 18 FF FF FF
  can0  0CFE13F0   [8]  7D 7D 30 FF FF FF FF FF
  can0  0CFEF2F0   [8]  2E 00 FF FF FF FF FF FF
  can0  0CFE45F0   [8]  0C 3F 79 19 7B FF FF FF
  can0  0CFE46F0   [8]  FA 3F FF FF FF FF FF FF
  can0  0CFE11F0   [8]  7D 7D 30 FF FF FF FF FF
  can0  0CFE12F0   [8]  7D 7D 30 FF FF FF FF FF
  can0  0CFE14F0   [8]  7D 7D 30 FF FF FF FF FF
  can0  0CFE17F0   [8]  7D 7D 30 FF FF FF FF FF
  can0  0CFE18F0   [8]  7D 7D 30 FF FF FF FF FF
  can0  0CF022F0   [8]  00 00 00 00 00 00 FF E0
  can0  0CACFFF0   [8]  64 7D 3D FF C0 FF FF FF
  can0  0CCBF0F7   [8]  12 00 8D 00 FF FF FF FF
  can0  0CCBF7F0   [8]  13 00 8D 00 00 00 00 00
  can0  0CFE48F0   [8]  00 00 00 00 00 00 01 14
  can0  0CFE49F0   [8]  FF FF FF FF 00 00 FF FC
  can0  0CF004F0   [8]  FF FF FF B0 18 FF FF FF
  can0  0CFE13F0   [8]  7D 7D 30 FF FF FF FF FF
  can0  0CFEF2F0   [8]  2E 00 FF FF FF FF FF FF
  can0  0CFE45F0   [8]  0C 3F 79 24 7B FF FF FF
  can0  0CFE46F0   [8]  FA 3F FF FF FF FF FF FF
  can0  0CFE11F0   [8]  7D 7D 30 FF FF FF FF FF
  can0  0CFE12F0   [8]  7D 7D 30 FF FF FF FF FF
  can0  0CFE14F0   [8]  7D 7D 30 FF FF FF FF FF
  can0  0CFE17F0   [8]  7D 7D 30 FF FF FF FF FF
  can0  0CFE18F0   [8]  7D 7D 30 FF FF FF FF FF
  can0  0CF022F0   [8]  00 00 00 00 00 00 FF E0
  can0  0CACFFF0   [8]  64 7D 3D FF C0 FF FF FF
  can0  0CFE48F0   [8]  00 00 00 00 00 00 01 14
  can0  0CFE49F0   [8]  FF FF FF FF 00 00 FF FC
  can0  0CF004F0   [8]  FF FF FF B8 18 FF FF FF
  can0  0CFE13F0   [8]  7D 7D 30 FF FF FF FF FF
  can0  0CFEF2F0   [8]  2E 00 FF FF FF FF FF FF
  can0  0CFE45F0   [8]  0C 3F 79 19 7B FF FF FF
  can0  0CFE46F0   [8]  FA 3F FF FF FF FF FF FF
  can0  0CFE11F0   [8]  7D 7D 30 FF FF FF FF FF
  can0  0CFE12F0   [8]  7D 7D 30 FF FF FF FF FF
  can0  0CFE14F0   [8]  7D 7D 30 FF FF FF FF FF
  can0  0CFE17F0   [8]  7D 7D 30 FF FF FF FF FF
  can0  0CFE18F0   [8]  7D 7D 30 FF FF FF FF FF
  can0  0CF022F0   [8]  00 00 00 00 00 00 FF E0
  can0  0CFEE7F0   [8]  16 28 00 00 FF FF FF FF
  can0  0CACFFF0   [8]  64 7D 3D FF C0 FF FF FF
  can0  0CFD02F0   [8]  FF FF FF FF FF FF 00 FD
  can0  19F8054A   [8]  00 33 90 A2 50 60 C3 32
  can0  19F8054A   [8]  01 18 00 98 43 4C EB F9
  can0  19F8054A   [8]  02 36 07 F8 9D 07 04 3E
  can0  19F8054A   [8]  03 1C C9 00 20 A5 B3 FF
  can0  19F8054A   [8]  04 FF FF FF FF 10 03 00
  can0  19F8054A   [8]  05 64 00 64 00 00 00 00
  can0  19F8054A   [8]  06 00 02 F0 FF 00 00 F0
  can0  19F8054A   [8]  07 FF 00 00 FF FF FF FF
  can0  19F8014A   [8]  DB B3 FC 1E 22 C3 5F 03
  can0  19F8024A   [8]  90 00 13 57 03 00 00 00
  can0  0CFE48F0   [8]  00 00 00 00 00 00 01 14
  can0  0CFE49F0   [8]  FF FF FF FF 00 00 FF FC
  can0  0CF004F0   [8]  FF FF FF B0 18 FF FF FF
  can0  0CFE13F0   [8]  7D 7D 30 FF FF FF FF FF
  can0  0CFEF2F0   [8]  2E 00 FF FF FF FF FF FF
  can0  0CFE45F0   [8]  0C 3F 79 0F 7B FF FF FF
  can0  0CFE46F0   [8]  FA 3F FF FF FF FF FF FF
  can0  0CFE11F0   [8]  7D 7D 30 FF FF FF FF FF
  can0  0CFE12F0   [8]  7D 7D 30 FF FF FF FF FF
  can0  0CFE14F0   [8]  7D 7D 30 FF FF FF FF FF
  can0  0CFE17F0   [8]  7D 7D 30 FF FF FF FF FF
  can0  0CFE18F0   [8]  7D 7D 30 FF FF FF FF FF
  can0  0CF022F0   [8]  00 00 00 00 00 00 FF E0
  can0  0CACFFF0   [8]  64 7D 3D FF C0 FF FF FF
  can0  0CFE48F0   [8]  00 00 00 00 00 00 01 14
  can0  0CFE49F0   [8]  FF FF FF FF 00 00 FF FC
  can0  0CF004F0   [8]  FF FF FF A8 18 FF FF FF
  can0  0CFE13F0   [8]  7D 7D 30 FF FF FF FF FF
  can0  0CFEF2F0   [8]  2F 00 FF FF FF FF FF FF
  can0  0CFE45F0   [8]  0C 3F 79 19 7B FF FF FF
  can0  0CFE46F0   [8]  FA 3F FF FF FF FF FF FF
  can0  0CFE11F0   [8]  7D 7D 30 FF FF FF FF FF
  can0  0CFE12F0   [8]  7D 7D 30 FF FF FF FF FF
  can0  0CFE14F0   [8]  7D 7D 30 FF FF FF FF FF
  can0  0CFE17F0   [8]  7D 7D 30 FF FF FF FF FF
  can0  0CFE18F0   [8]  7D 7D 30 FF FF FF FF FF
  can0  0CF022F0   [8]  00 00 00 00 00 00 FF E0
  can0  0CACFFF0   [8]  63 7D 3D FF C0 FF FF FF
  can0  0CFE48F0   [8]  00 00 00 00 00 00 01 14
  can0  0CFE49F0   [8]  FF FF FF FF 00 00 FF FC
  can0  0CF004F0   [8]  FF FF FF B0 18 FF FF FF
  can0  0CFE13F0   [8]  7D 7D 30 FF FF FF FF FF
  can0  0CFEF2F0   [8]  2F 00 FF FF FF FF FF FF
  can0  0CFE45F0   [8]  0C 3F 79 20 7B FF FF FF
  can0  0CFE46F0   [8]  FA 3F FF FF FF FF FF FF
  can0  0CFE11F0   [8]  7D 7D 30 FF FF FF FF FF
  can0  0CFE12F0   [8]  7D 7D 30 FF FF FF FF FF
  can0  0CFE14F0   [8]  7D 7D 30 FF FF FF FF FF
  can0  0CFE17F0   [8]  7D 7D 30 FF FF FF FF FF
  can0  0CFE18F0   [8]  7D 7D 30 FF FF FF FF FF
  can0  0CF022F0   [8]  00 00 00 00 00 00 FF E0
  can0  0CACFFF0   [8]  63 7D 3D FF C0 FF FF FF
  can0  0CFE48F0   [8]  00 00 00 00 00 00 01 14
  can0  0CFE49F0   [8]  FF FF FF FF 00 00 FF FC
  can0  0CF004F0   [8]  FF FF FF B0 18 FF FF FF
  can0  0CFE13F0   [8]  7D 7D 30 FF FF FF FF FF
  can0  0CFEF2F0   [8]  2F 00 FF FF FF FF FF FF
  can0  0CFE45F0   [8]  0C 3F 79 12 7B FF FF FF
  can0  0CFE46F0   [8]  FA 3F FF FF FF FF FF FF
  can0  0CFE11F0   [8]  7D 7D 30 FF FF FF FF FF
  can0  0CFE12F0   [8]  7D 7D 30 FF FF FF FF FF
  can0  0CFE14F0   [8]  7D 7D 30 FF FF FF FF FF
  can0  0CFE17F0   [8]  7D 7D 30 FF FF FF FF FF
  can0  0CFE18F0   [8]  7D 7D 30 FF FF FF FF FF
  can0  0CF022F0   [8]  00 00 00 00 00 00 FF E0
  can0  0CACFFF0   [8]  63 7D 3D FF C0 FF FF FF
  can0  19F8014A   [8]  E5 B3 FC 1E 2B C3 5F 03
  can0  19F8024A   [8]  91 00 13 57 00 00 00 00
  can0  0CFE48F0   [8]  00 00 00 00 00 00 01 14
  can0  0CFE49F0   [8]  FF FF FF FF 00 00 FF FC
  can0  0CF004F0   [8]  FF FF FF A8 18 FF FF FF
  can0  0CFE13F0   [8]  7D 7D 30 FF FF FF FF FF
  can0  0CFEF2F0   [8]  2F 00 FF FF FF FF FF FF
  can0  0CFE45F0   [8]  0C 3F 79 19 7B FF FF FF
  can0  0CFE46F0   [8]  FA 3F FF FF FF FF FF FF
  can0  0CFE11F0   [8]  7D 7D 30 FF FF FF FF FF
  can0  0CFE12F0   [8]  7D 7D 30 FF FF FF FF FF
  can0  0CFE14F0   [8]  7D 7D 30 FF FF FF FF FF
  can0  0CFE17F0   [8]  7D 7D 30 FF FF FF FF FF
  can0  0CFE18F0   [8]  7D 7D 30 FF FF FF FF FF
  can0  0CF022F0   [8]  00 00 00 00 00 00 FF E0
  can0  0CACFFF0   [8]  63 7D 3D FF C0 FF FF FF
  can0  0CFE41F0   [8]  01 03 03 00 FF FF FF FF
  can0  0CFE40F0   [8]  01 03 03 00 FF FF FF FF
  can0  0CFE48F0   [8]  00 00 00 00 00 00 01 14
  can0  0CFE49F0   [8]  FF FF FF FF 00 00 FF FC
  can0  0CF004F0   [8]  FF FF FF A0 18 FF FF FF
  can0  0CFE13F0   [8]  7D 7D 30 FF FF FF FF FF
  can0  0CFEF2F0   [8]  2F 00 FF FF FF FF FF FF
  can0  0CFE45F0   [8]  0C 3F 79 12 7B FF FF FF
  can0  0CFE46F0   [8]  FA 3F FF FF FF FF FF FF
  can0  0CFE11F0   [8]  7D 7D 30 FF FF FF FF FF
  can0  0CFE12F0   [8]  7D 7D 30 FF FF FF FF FF
  can0  0CFE14F0   [8]  7D 7D 30 FF FF FF FF FF
  can0  0CFE17F0   [8]  7D 7D 30 FF FF FF FF FF
  can0  0CFE18F0   [8]  7D 7D 30 FF FF FF FF FF
  can0  0CF022F0   [8]  00 00 00 00 00 00 FF E0
  can0  0CACFFF0   [8]  63 7D 3D FF C0 FF FF FF
  can0  0CFE48F0   [8]  00 00 00 00 00 00 01 14
  can0  0CFE49F0   [8]  FF FF FF FF 00 00 FF FC
  can0  0CF004F0   [8]  FF FF FF A0 18 FF FF FF
  can0  0CFE13F0   [8]  7D 7D 30 FF FF FF FF FF
  can0  0CFEF2F0   [8]  2F 00 FF FF FF FF FF FF
  can0  0CFE45F0   [8]  0C 3F 79 19 7B FF FF FF
  can0  0CFE46F0   [8]  FA 3F FF FF FF FF FF FF
  can0  0CFE11F0   [8]  7D 7D 30 FF FF FF FF FF
  can0  0CFE12F0   [8]  7D 7D 30 FF FF FF FF FF
  can0  0CFE14F0   [8]  7D 7D 30 FF FF FF FF FF
  can0  0CFE17F0   [8]  7D 7D 30 FF FF FF FF FF
  can0  0CFE18F0   [8]  7D 7D 30 FF FF FF FF FF
  can0  0CF022F0   [8]  00 00 00 00 00 00 FF E0
  can0  0CACFFF0   [8]  64 7D 3D FF C0 FF FF FF
  can0  0CFE48F0   [8]  00 00 00 00 00 00 01 14
  can0  0CFE49F0   [8]  FF FF FF FF 00 00 FF FC
  can0  0CF004F0   [8]  FF FF FF A0 18 FF FF FF
  can0  0CFE13F0   [8]  7D 7D 30 FF FF FF FF FF
  can0  19F8014A   [8]  EC B3 FC 1E 32 C3 5F 03
  can0  19F8024A   [8]  91 00 13 57 00 00 00 00
  can0  0CFEF2F0   [8]  2F 00 FF FF FF FF FF FF
  can0  0CFE45F0   [8]  0C 3F 79 2B 7B FF FF FF
  can0  0CFE46F0   [8]  FA 3F FF FF FF FF FF FF
  can0  0CFE11F0   [8]  7D 7D 30 FF FF FF FF FF
  can0  0CFE12F0   [8]  7D 7D 30 FF FF FF FF FF
  can0  0CFE14F0   [8]  7D 7D 30 FF FF FF FF FF
  can0  0CFE17F0   [8]  7D 7D 30 FF FF FF FF FF
  can0  0CFE18F0   [8]  7D 7D 30 FF FF FF FF FF
  can0  0CF022F0   [8]  00 00 00 00 00 00 FF E0
  can0  0CACFFF0   [8]  63 7D 3D FF C0 FF FF FF
  can0  0CCBF0F7   [8]  12 00 8D 00 FF FF FF FF
  can0  0CCBF7F0   [8]  13 00 8D 00 00 00 00 00
  can0  0CFE48F0   [8]  00 00 00 00 00 00 01 14
  can0  0CFE49F0   [8]  FF FF FF FF 00 00 FF FC
  can0  0CF004F0   [8]  FF FF FF A8 18 FF FF FF
  can0  0CFE13F0   [8]  7D 7D 30 FF FF FF FF FF
  can0  0CFEF2F0   [8]  2F 00 FF FF FF FF FF FF
  can0  0CFE45F0   [8]  0C 3F 79 19 7B FF FF FF
  can0  0CFE46F0   [8]  FA 3F FF FF FF FF FF FF
  can0  0CFE11F0   [8]  7D 7D 30 FF FF FF FF FF
  can0  0CFE12F0   [8]  7D 7D 30 FF FF FF FF FF
  can0  0CFE14F0   [8]  7D 7D 30 FF FF FF FF FF
  can0  0CFE17F0   [8]  7D 7D 30 FF FF FF FF FF
  can0  0CFE18F0   [8]  7D 7D 30 FF FF FF FF FF
  can0  0CF022F0   [8]  00 00 00 00 00 00 FF E0
  can0  0CACFFF0   [8]  64 7D 3D FF C0 FF FF FF
  can0  0CFE48F0   [8]  00 00 00 00 00 00 01 14
  can0  0CFE49F0   [8]  FF FF FF FF 00 00 FF FC
  can0  0CF004F0   [8]  FF FF FF A8 18 FF FF FF
  can0  0CFE13F0   [8]  7D 7D 30 FF FF FF FF FF
  can0  0CFEF2F0   [8]  2F 00 FF FF FF FF FF FF
  can0  0CFE45F0   [8]  0C 3F 79 12 7B FF FF FF
  can0  0CFE46F0   [8]  FA 3F FF FF FF FF FF FF
  can0  0CFE11F0   [8]  7D 7D 30 FF FF FF FF FF
  can0  0CFE12F0   [8]  7D 7D 30 FF FF FF FF FF
  can0  0CFE14F0   [8]  7D 7D 30 FF FF FF FF FF
  can0  0CFE17F0   [8]  7D 7D 30 FF FF FF FF FF
  can0  0CFE18F0   [8]  7D 7D 30 FF FF FF FF FF
  can0  0CF022F0   [8]  00 00 00 00 00 00 FF E0
  can0  0CFEE7F0   [8]  16 28 00 00 FF FF FF FF
  can0  0CACFFF0   [8]  64 7D 3D FF C0 FF FF FF
  can0  0CFD02F0   [8]  FF FF FF FF FF FF 00 FD
  can0  0CCBFFF7   [8]  FE FF FF FF 00 00 00 00
  can0  0CFE48F0   [8]  00 00 00 00 00 00 01 14
  can0  0CFE49F0   [8]  FF FF FF FF 00 00 FF FC
  can0  0CF004F0   [8]  FF FF FF A0 18 FF FF FF
  can0  0CFE13F0   [8]  7D 7D 30 FF FF FF FF FF
  can0  0CFEF2F0   [8]  2F 00 FF FF FF FF FF FF
  can0  0CFE45F0   [8]  0C 3F 79 08 7B FF FF FF
  can0  0CFE46F0   [8]  FA 3F FF FF FF FF FF FF
  can0  0CFE11F0   [8]  7D 7D 30 FF FF FF FF FF
  can0  0CFE12F0   [8]  7D 7D 30 FF FF FF FF FF
  can0  0CFE14F0   [8]  7D 7D 30 FF FF FF FF FF
  can0  0CFE17F0   [8]  7D 7D 30 FF FF FF FF FF
  can0  0CFE18F0   [8]  7D 7D 30 FF FF FF FF FF
  can0  0CF022F0   [8]  00 00 00 00 00 00 FF E0
  can0  0CACFFF0   [8]  64 7D 3D FF C0 FF FF FF
  can0  19F8054A   [8]  00 33 91 A2 50 80 11 33
  can0  19F8054A   [8]  01 18 00 1C FC 59 F1 F9
  can0  19F8054A   [8]  02 36 07 00 8E 8A 9A 43
  can0  19F8054A   [8]  03 1C C9 00 80 6B BA FF
  can0  19F8054A   [8]  04 FF FF FF FF 10 03 00
  can0  19F8054A   [8]  05 64 00 64 00 00 00 00
  can0  19F8054A   [8]  06 00 02 F0 FF 00 00 F0
  can0  19F8054A   [8]  07 FF 00 00 FF FF FF FF
  can0  19F8014A   [8]  F6 B3 FC 1E 3B C3 5F 03
  can0  19F8024A   [8]  91 00 13 57 00 00 00 00
  can0  0CFE48F0   [8]  00 00 00 00 00 00 01 14
  can0  0CFE49F0   [8]  FF FF FF FF 00 00 FF FC
  can0  0CF004F0   [8]  FF FF FF A8 18 FF FF FF
  can0  0CFE13F0   [8]  7D 7D 30 FF FF FF FF FF
  can0  0CFEF2F0   [8]  2F 00 FF FF FF FF FF FF
  can0  0CFE45F0   [8]  0C 3F 79 24 7B FF FF FF
  can0  0CFE46F0   [8]  FA 3F FF FF FF FF FF FF
  can0  0CFE11F0   [8]  7D 7D 30 FF FF FF FF FF
  can0  0CFE12F0   [8]  7D 7D 30 FF FF FF FF FF
  can0  0CFE14F0   [8]  7D 7D 30 FF FF FF FF FF
  can0  0CFE17F0   [8]  7D 7D 30 FF FF FF FF FF
  can0  0CFE18F0   [8]  7D 7D 30 FF FF FF FF FF
  can0  0CF022F0   [8]  00 00 00 00 00 00 FF E0
  can0  0CACFFF0   [8]  64 7D 3D FF C0 FF FF FF
  can0  0CFE48F0   [8]  00 00 00 00 00 00 01 14
  can0  0CFE49F0   [8]  FF FF FF FF 00 00 FF FC
  can0  0CF004F0   [8]  FF FF FF 98 18 FF FF FF
  can0  0CFE13F0   [8]  7D 7D 30 FF FF FF FF FF
  can0  0CFEF2F0   [8]  2F 00 FF FF FF FF FF FF
  can0  0CFE45F0   [8]  0C 3F 79 19 7B FF FF FF
  can0  0CFE46F0   [8]  FA 3F FF FF FF FF FF FF
  can0  0CFE11F0   [8]  7D 7D 30 FF FF FF FF FF
  can0  0CFE12F0   [8]  7D 7D 30 FF FF FF FF FF
  can0  0CFE14F0   [8]  7D 7D 30 FF FF FF FF FF
  can0  0CFE17F0   [8]  7D 7D 30 FF FF FF FF FF
  can0  0CFE18F0   [8]  7D 7D 30 FF FF FF FF FF
  can0  0CF022F0   [8]  00 00 00 00 00 00 FF E0
  can0  0CACFFF0   [8]  64 7D 3D FF C0 FF FF FF
  can0  0CFE48F0   [8]  00 00 00 00 00 00 01 14
  can0  0CFE49F0   [8]  FF FF FF FF 00 00 FF FC
  can0  0CF004F0   [8]  FF FF FF 98 18 FF FF FF
  can0  0CFE13F0   [8]  7D 7D 30 FF FF FF FF FF
  can0  0CFEF2F0   [8]  2F 00 FF FF FF FF FF FF
  can0  0CFE45F0   [8]  0C 3F 79 12 7B FF FF FF
  can0  0CFE46F0   [8]  FA 3F FF FF FF FF FF FF
  can0  0CFE11F0   [8]  7D 7D 30 FF FF FF FF FF
  can0  0CFE12F0   [8]  7D 7D 30 FF FF FF FF FF
  can0  0CFE14F0   [8]  7D 7D 30 FF FF FF FF FF
  can0  0CFE17F0   [8]  7D 7D 30 FF FF FF FF FF
  can0  0CFE18F0   [8]  7D 7D 30 FF FF FF FF FF
  can0  0CF022F0   [8]  00 00 00 00 00 00 FF E0
  can0  0CACFFF0   [8]  64 7D 3D FF C0 FF FF FF
  can0  0CFE48F0   [8]  00 00 00 00 00 00 01 14
  can0  0CFE49F0   [8]  FF FF FF FF 00 00 FF FC
  can0  0CF004F0   [8]  FF FF FF A0 18 FF FF FF
  can0  0CFE13F0   [8]  7D 7D 30 FF FF FF FF FF
  can0  0CFEF2F0   [8]  2F 00 FF FF FF FF FF FF
  can0  0CFE45F0   [8]  0C 3F 79 12 7B FF FF FF
  can0  0CFE46F0   [8]  FA 3F FF FF FF FF FF FF
  can0  0CFE11F0   [8]  7D 7D 30 FF FF FF FF FF
  can0  0CFE12F0   [8]  7D 7D 30 FF FF FF FF FF
  can0  0CFE14F0   [8]  7D 7D 30 FF FF FF FF FF
  can0  0CFE17F0   [8]  7D 7D 30 FF FF FF FF FF
  can0  0CFE18F0   [8]  7D 7D 30 FF FF FF FF FF
  can0  0CF022F0   [8]  00 00 00 00 00 00 FF E0
  can0  0CACFFF0   [8]  64 7D 3D FF C0 FF FF FF
  can0  19F8014A   [8]  FF B3 FC 1E 42 C3 5F 03
  can0  19F8024A   [8]  92 00 13 57 01 00 00 00
  can0  0CFE41F0   [8]  01 03 03 00 FF FF FF FF
  can0  0CFE40F0   [8]  01 03 03 00 FF FF FF FF
  can0  0CCBF7F0   [8]  FF FF FF FF 00 00 00 00
  can0  0CFE48F0   [8]  00 00 00 00 00 00 01 14
  can0  0CFE49F0   [8]  FF FF FF FF 00 00 FF FC
  can0  0CF004F0   [8]  FF FF FF A0 18 FF FF FF
  can0  0CFE13F0   [8]  7D 7D 30 FF FF FF FF FF
  can0  0CFEF2F0   [8]  2F 00 FF FF FF FF FF FF
  can0  0CFE45F0   [8]  0C 3F 79 20 7B FF FF FF
  can0  0CFE46F0   [8]  FA 3F FF FF FF FF FF FF
  can0  0CFE11F0   [8]  7D 7D 30 FF FF FF FF FF
  can0  0CFE12F0   [8]  7D 7D 30 FF FF FF FF FF
  can0  0CFE14F0   [8]  7D 7D 30 FF FF FF FF FF
  can0  0CFE17F0   [8]  7D 7D 30 FF FF FF FF FF
  can0  0CFE18F0   [8]  7D 7D 30 FF FF FF FF FF
  can0  0CF022F0   [8]  00 00 00 00 00 00 FF E0
  can0  0CACFFF0   [8]  64 7D 3D FF C0 FF FF FF
  can0  0CFE48F0   [8]  00 00 00 00 00 00 01 14
  can0  0CFE49F0   [8]  FF FF FF FF 00 00 FF FC
  can0  0CF004F0   [8]  FF FF FF 98 18 FF FF FF
  can0  0CFE13F0   [8]  7D 7D 30 FF FF FF FF FF
  can0  0CFEF2F0   [8]  2F 00 FF FF FF FF FF FF
  can0  0CFE45F0   [8]  0C 3F 79 08 7B FF FF FF
  can0  0CFE46F0   [8]  FA 3F FF FF FF FF FF FF
  can0  0CFE11F0   [8]  7D 7D 30 FF FF FF FF FF
  can0  0CFE12F0   [8]  7D 7D 30 FF FF FF FF FF
  can0  0CFE14F0   [8]  7D 7D 30 FF FF FF FF FF
  can0  0CFE17F0   [8]  7D 7D 30 FF FF FF FF FF
  can0  0CFE18F0   [8]  7D 7D 30 FF FF FF FF FF
  can0  0CF022F0   [8]  00 00 00 00 00 00 FF E0
  can0  0CACFFF0   [8]  64 7D 3D FF C0 FF FF FF
  can0  0CFE48F0   [8]  00 00 00 00 00 00 01 14
  can0  0CFE49F0   [8]  FF FF FF FF 00 00 FF FC
  can0  0CF004F0   [8]  FF FF FF A0 18 FF FF FF
  can0  0CFE13F0   [8]  7D 7D 30 FF FF FF FF FF
  can0  0CFEF2F0   [8]  2F 00 FF FF FF FF FF FF
  can0  0CFE45F0   [8]  0C 3F 79 19 7B FF FF FF
  can0  0CFE46F0   [8]  FA 3F FF FF FF FF FF FF
  can0  0CFE11F0   [8]  7D 7D 30 FF FF FF FF FF
  can0  0CFE12F0   [8]  7D 7D 30 FF FF FF FF FF
  can0  0CFE14F0   [8]  7D 7D 30 FF FF FF FF FF
  can0  0CFE17F0   [8]  7D 7D 30 FF FF FF FF FF
  can0  0CFE18F0   [8]  7D 7D 30 FF FF FF FF FF
  can0  0CF022F0   [8]  00 00 00 00 00 00 FF E0
  can0  0CACFFF0   [8]  65 7D 3D FF C0 FF FF FF
  can0  0CCBF0F7   [8]  12 00 8D 00 FF FF FF FF
  can0  0CCBF7F0   [8]  13 00 8D 00 00 00 00 00
  can0  19F8014A   [8]  0D B4 FC 1E 4E C3 5F 03
  can0  19F8024A   [8]  92 00 13 57 00 00 00 00
  can0  0CFE48F0   [8]  00 00 00 00 00 00 01 14
  can0  0CFE49F0   [8]  FF FF FF FF 00 00 FF FC
  can0  0CF004F0   [8]  FF FF FF A0 18 FF FF FF
  can0  0CFE13F0   [8]  7D 7D 30 FF FF FF FF FF
  can0  0CFEF2F0   [8]  2F 00 FF FF FF FF FF FF
  can0  0CFE45F0   [8]  0C 3F 79 24 7B FF FF FF
  can0  0CFE46F0   [8]  FA 3F FF FF FF FF FF FF
  can0  0CFE11F0   [8]  7D 7D 30 FF FF FF FF FF
  can0  0CFE12F0   [8]  7D 7D 30 FF FF FF FF FF
  can0  0CFE14F0   [8]  7D 7D 30 FF FF FF FF FF
  can0  0CFE17F0   [8]  7D 7D 30 FF FF FF FF FF
  can0  0CFE18F0   [8]  7D 7D 30 FF FF FF FF FF
  can0  0CF022F0   [8]  00 00 00 00 00 00 FF E0
  can0  0CACFFF0   [8]  64 7D 3D FF C0 FF FF FF
  can0  0CFE48F0   [8]  00 00 00 00 00 00 01 14
  can0  0CFE49F0   [8]  FF FF FF FF 00 00 FF FC
  can0  0CF004F0   [8]  FF FF FF A8 18 FF FF FF
  can0  0CFE13F0   [8]  7D 7D 30 FF FF FF FF FF
  can0  0CFEF2F0   [8]  2F 00 FF FF FF FF FF FF
  can0  0CFE45F0   [8]  0C 3F 79 12 7B FF FF FF
  can0  0CFE46F0   [8]  FA 3F FF FF FF FF FF FF
  can0  0CFE11F0   [8]  7D 7D 30 FF FF FF FF FF
  can0  0CFE12F0   [8]  7D 7D 30 FF FF FF FF FF
  can0  0CFE14F0   [8]  7D 7D 30 FF FF FF FF FF
  can0  0CFE17F0   [8]  7D 7D 30 FF FF FF FF FF
  can0  0CFE18F0   [8]  7D 7D 30 FF FF FF FF FF
  can0  0CF022F0   [8]  00 00 00 00 00 00 FF E0
  can0  0CFEE7F0   [8]  16 28 00 00 FF FF FF FF
  can0  0CACFFF0   [8]  64 7D 3D FF C0 FF FF FF
  can0  0CFD02F0   [8]  FF FF FF FF FF FF 00 FD
  can0  0CFE48F0   [8]  00 00 00 00 00 00 01 14
  can0  0CFE49F0   [8]  FF FF FF FF 00 00 FF FC
  can0  0CF004F0   [8]  FF FF FF A8 18 FF FF FF
  can0  0CFE13F0   [8]  7D 7D 30 FF FF FF FF FF
  can0  0CFEF2F0   [8]  2F 00 FF FF FF FF FF FF
  can0  0CFE45F0   [8]  0C 3F 79 19 7B FF FF FF
  can0  0CFE46F0   [8]  FA 3F FF FF FF FF FF FF
  can0  0CFE11F0   [8]  7D 7D 30 FF FF FF FF FF
  can0  0CFE12F0   [8]  7D 7D 30 FF FF FF FF FF
  can0  0CFE14F0   [8]  7D 7D 30 FF FF FF FF FF
  can0  0CFE17F0   [8]  7D 7D 30 FF FF FF FF FF
  can0  0CFE18F0   [8]  7D 7D 30 FF FF FF FF FF
  can0  0CF022F0   [8]  00 00 00 00 00 00 FF E0
  can0  0CACFFF0   [8]  64 7D 3D FF C0 FF FF FF
  can0  0CFE48F0   [8]  00 00 00 00 00 00 01 14
  can0  0CFE49F0   [8]  FF FF FF FF 00 00 FF FC
  can0  0CF004F0   [8]  FF FF FF A8 18 FF FF FF
  can0  0CFE13F0   [8]  7D 7D 30 FF FF FF FF FF
  can0  0CFEF2F0   [8]  2F 00 FF FF FF FF FF FF
  can0  0CFE45F0   [8]  0C 3F 79 24 7B FF FF FF
  can0  0CFE46F0   [8]  FA 3F FF FF FF FF FF FF
  can0  0CFE11F0   [8]  7D 7D 30 FF FF FF FF FF
  can0  0CFE12F0   [8]  7D 7D 30 FF FF FF FF FF
  can0  0CFE14F0   [8]  7D 7D 30 FF FF FF FF FF
  can0  0CFE17F0   [8]  7D 7D 30 FF FF FF FF FF
  can0  0CFE18F0   [8]  7D 7D 30 FF FF FF FF FF
  can0  0CF022F0   [8]  00 00 00 00 00 00 FF E0
  can0  0CACFFF0   [8]  64 7D 3D FF C0 FF FF FF
  can0  19F8054A   [8]  00 33 92 A2 50 90 38 33
  can0  19F8054A   [8]  01 18 00 BA 25 80 F9 F9
  can0  19F8054A   [8]  02 36 07 00 70 13 5B 4A
  can0  19F8054A   [8]  03 1C C9 00 60 E7 C2 FF
  can0  19F8054A   [8]  04 FF FF FF FF 10 03 00
  can0  19F8054A   [8]  05 64 00 64 00 00 00 00
  can0  19F8054A   [8]  06 00 02 F0 FF 00 00 F0
  can0  19F8054A   [8]  07 FF 00 00 FF FF FF FF
  can0  19F8014A   [8]  19 B4 FC 1E 58 C3 5F 03
  can0  19F8024A   [8]  92 00 13 57 00 00 00 00
  can0  0CFE48F0   [8]  00 00 00 00 00 00 01 14
  can0  0CFE49F0   [8]  FF FF FF FF 00 00 FF FC
  can0  0CF004F0   [8]  FF FF FF B0 18 FF FF FF
  can0  0CFE13F0   [8]  7D 7D 30 FF FF FF FF FF
  can0  0CFEF2F0   [8]  2F 00 FF FF FF FF FF FF
  can0  0CFE45F0   [8]  0C 3F 79 01 7B FF FF FF
  can0  0CFE46F0   [8]  FA 3F FF FF FF FF FF FF
  can0  0CFE11F0   [8]  7D 7D 30 FF FF FF FF FF
  can0  0CFE12F0   [8]  7D 7D 30 FF FF FF FF FF
  can0  0CFE14F0   [8]  7D 7D 30 FF FF FF FF FF
  can0  0CFE17F0   [8]  7D 7D 30 FF FF FF FF FF
  can0  0CFE18F0   [8]  7D 7D 30 FF FF FF FF FF
  can0  0CF022F0   [8]  00 00 00 00 00 00 FF E0
  can0  0CACFFF0   [8]  64 7D 3D FF C0 FF FF FF
  can0  0CFE48F0   [8]  00 00 00 00 00 00 01 14
  can0  0CFE49F0   [8]  FF FF FF FF 00 00 FF FC
  can0  0CF004F0   [8]  FF FF FF B0 18 FF FF FF
  can0  0CFE13F0   [8]  7D 7D 30 FF FF FF FF FF
  can0  0CFEF2F0   [8]  2F 00 FF FF FF FF FF FF
  can0  0CFE45F0   [8]  0C 3F 79 12 7B FF FF FF
  can0  0CFE46F0   [8]  FA 3F FF FF FF FF FF FF
  can0  0CFE11F0   [8]  7D 7D 30 FF FF FF FF FF
  can0  0CFE12F0   [8]  7D 7D 30 FF FF FF FF FF
  can0  0CFE14F0   [8]  7D 7D 30 FF FF FF FF FF
  can0  0CFE17F0   [8]  7D 7D 30 FF FF FF FF FF
  can0  0CFE18F0   [8]  7D 7D 30 FF FF FF FF FF
  can0  0CF022F0   [8]  00 00 00 00 00 00 FF E0
  can0  0CACFFF0   [8]  64 7D 3D FF C0 FF FF FF
  can0  0CFE48F0   [8]  00 00 00 00 00 00 01 14
  can0  0CFE49F0   [8]  FF FF FF FF 00 00 FF FC
  can0  0CF004F0   [8]  FF FF FF B0 18 FF FF FF
  can0  0CFE13F0   [8]  7D 7D 30 FF FF FF FF FF
  can0  0CFEF2F0   [8]  2F 00 FF FF FF FF FF FF
  can0  0CFE45F0   [8]  0C 3F 79 27 7B FF FF FF
  can0  0CFE46F0   [8]  FA 3F FF FF FF FF FF FF
  can0  0CFE11F0   [8]  7D 7D 30 FF FF FF FF FF
  can0  0CFE12F0   [8]  7D 7D 30 FF FF FF FF FF
  can0  0CFE14F0   [8]  7D 7D 30 FF FF FF FF FF
  can0  0CFE17F0   [8]  7D 7D 30 FF FF FF FF FF
  can0  0CFE18F0   [8]  7D 7D 30 FF FF FF FF FF
  can0  0CF022F0   [8]  00 00 00 00 00 00 FF E0
  can0  0CACFFF0   [8]  64 7D 3D FF C0 FF FF FF
  can0  0CFE41F0   [8]  01 03 03 00 FF FF FF FF
  can0  0CFE40F0   [8]  01 03 03 00 FF FF FF FF
  can0  19F8014A   [8]  22 B4 FC 1E 60 C3 5F 03
  can0  19F8024A   [8]  93 00 13 57 03 00 00 00
  can0  0CFE48F0   [8]  00 00 00 00 00 00 01 14
  can0  0CFE49F0   [8]  FF FF FF FF 00 00 FF FC
  can0  0CF004F0   [8]  FF FF FF A8 18 FF FF FF
  can0  0CFE13F0   [8]  7D 7D 30 FF FF FF FF FF
  can0  0CFEF2F0   [8]  2F 00 FF FF FF FF FF FF
  can0  0CFE45F0   [8]  0C 3F 79 2B 7B FF FF FF
  can0  0CFE46F0   [8]  FA 3F FF FF FF FF FF FF
  can0  0CFE11F0   [8]  7D 7D 30 FF FF FF FF FF
  can0  0CFE12F0   [8]  7D 7D 30 FF FF FF FF FF
  can0  0CFE14F0   [8]  7D 7D 30 FF FF FF FF FF
  can0  0CFE17F0   [8]  7D 7D 30 FF FF FF FF FF
  can0  0CFE18F0   [8]  7D 7D 30 FF FF FF FF FF
  can0  0CF022F0   [8]  00 00 00 00 00 00 FF E0
  can0  0CACFFF0   [8]  64 7D 3C FF C0 FF FF FF
  can0  0CFE48F0   [8]  00 00 00 00 00 00 01 14
  can0  0CFE49F0   [8]  FF FF FF FF 00 00 FF FC
  can0  0CF004F0   [8]  FF FF FF B0 18 FF FF FF
  can0  0CFE13F0   [8]  7D 7D 30 FF FF FF FF FF
  can0  0CFEF2F0   [8]  2F 00 FF FF FF FF FF FF
  can0  0CFE45F0   [8]  0C 3F 79 20 7B FF FF FF
  can0  0CFE46F0   [8]  FA 3F FF FF FF FF FF FF
  can0  0CFE11F0   [8]  7D 7D 30 FF FF FF FF FF
  can0  0CFE12F0   [8]  7D 7D 30 FF FF FF FF FF
  can0  0CFE14F0   [8]  7D 7D 30 FF FF FF FF FF
  can0  0CFE17F0   [8]  7D 7D 30 FF FF FF FF FF
  can0  0CFE18F0   [8]  7D 7D 30 FF FF FF FF FF
  can0  0CF022F0   [8]  00 00 00 00 00 00 FF E0
  can0  0CACFFF0   [8]  64 7D 3C FF C0 FF FF FF
  can0  0CFE48F0   [8]  00 00 00 00 00 00 01 14
  can0  0CFE49F0   [8]  FF FF FF FF 00 00 FF FC
  can0  0CF004F0   [8]  FF FF FF A8 18 FF FF FF
  can0  0CFE13F0   [8]  7D 7D 30 FF FF FF FF FF
  can0  0CFEF2F0   [8]  2F 00 FF FF FF FF FF FF
  can0  0CFE45F0   [8]  0C 3F 79 12 7B FF FF FF
  can0  0CFE46F0   [8]  FA 3F FF FF FF FF FF FF
  can0  0CFE11F0   [8]  7D 7D 30 FF FF FF FF FF
  can0  0CFE12F0   [8]  7D 7D 30 FF FF FF FF FF
  can0  0CFE14F0   [8]  7D 7D 30 FF FF FF FF FF
  can0  0CFE17F0   [8]  7D 7D 30 FF FF FF FF FF
  can0  0CFE18F0   [8]  7D 7D 30 FF FF FF FF FF
  can0  0CF022F0   [8]  00 00 00 00 00 00 FF E0
  can0  0CACFFF0   [8]  64 7D 3C FF C0 FF FF FF
  can0  0CCBF0F7   [8]  12 00 8D 00 FF FF FF FF
  can0  0CCBF7F0   [8]  13 00 8D 00 00 00 00 00
  can0  0CFE48F0   [8]  00 00 00 00 00 00 01 14
  can0  0CFE49F0   [8]  FF FF FF FF 00 00 FF FC
  can0  0CF004F0   [8]  FF FF FF A8 18 FF FF FF
  can0  0CFE13F0   [8]  7D 7D 30 FF FF FF FF FF
  can0  0CFEF2F0   [8]  2F 00 FF FF FF FF FF FF
  can0  0CFE45F0   [8]  0C 3F 79 2B 7B FF FF FF
  can0  0CFE46F0   [8]  FA 3F FF FF FF FF FF FF
  can0  0CFE11F0   [8]  7D 7D 30 FF FF FF FF FF
  can0  0CFE12F0   [8]  7D 7D 30 FF FF FF FF FF
  can0  0CFE14F0   [8]  7D 7D 30 FF FF FF FF FF
  can0  0CFE17F0   [8]  7D 7D 30 FF FF FF FF FF
  can0  0CFE18F0   [8]  7D 7D 30 FF FF FF FF FF
  can0  0CF022F0   [8]  00 00 00 00 00 00 FF E0
  can0  0CACFFF0   [8]  64 7D 3C FF C0 FF FF FF
  can0  19F8014A   [8]  30 B4 FC 1E 6B C3 5F 03
  can0  19F8024A   [8]  93 00 13 57 02 00 00 00
  can0  0CCBFFF7   [8]  FE FF FF FF 00 00 00 00
  can0  0CFE48F0   [8]  00 00 00 00 00 00 01 14
  can0  0CFE49F0   [8]  FF FF FF FF 00 00 FF FC
  can0  0CF004F0   [8]  FF FF FF B0 18 FF FF FF
  can0  0CFE13F0   [8]  7D 7D 30 FF FF FF FF FF
  can0  0CFEF2F0   [8]  2F 00 FF FF FF FF FF FF
  can0  0CFE45F0   [8]  0C 3F 79 24 7B FF FF FF
  can0  0CFE46F0   [8]  FA 3F FF FF FF FF FF FF
  can0  0CFE11F0   [8]  7D 7D 30 FF FF FF FF FF
  can0  0CFE12F0   [8]  7D 7D 30 FF FF FF FF FF
  can0  0CFE14F0   [8]  7D 7D 30 FF FF FF FF FF
  can0  0CFE17F0   [8]  7D 7D 30 FF FF FF FF FF
  can0  0CFE18F0   [8]  7D 7D 30 FF FF FF FF FF
  can0  0CF022F0   [8]  00 00 00 00 00 00 FF E0
  can0  0CFEE7F0   [8]  16 28 00 00 FF FF FF FF
  can0  0CACFFF0   [8]  64 7D 3C FF C0 FF FF FF
  can0  0CFD02F0   [8]  FF FF FF FF FF FF 00 FD
  can0  0CFE48F0   [8]  00 00 00 00 00 00 01 14
  can0  0CFE49F0   [8]  FF FF FF FF 00 00 FF FC
  can0  0CF004F0   [8]  FF FF FF B0 18 FF FF FF
  can0  0CFE13F0   [8]  7D 7D 30 FF FF FF FF FF
  can0  0CFEF2F0   [8]  2F 00 FF FF FF FF FF FF
  can0  0CFE45F0   [8]  0C 3F 79 19 7B FF FF FF
  can0  0CFE46F0   [8]  FA 3F FF FF FF FF FF FF
  can0  0CFE11F0   [8]  7D 7D 30 FF FF FF FF FF
  can0  0CFE12F0   [8]  7D 7D 30 FF FF FF FF FF
  can0  0CFE14F0   [8]  7D 7D 30 FF FF FF FF FF
  can0  0CFE17F0   [8]  7D 7D 30 FF FF FF FF FF
  can0  0CFE18F0   [8]  7D 7D 30 FF FF FF FF FF
  can0  0CF022F0   [8]  00 00 00 00 00 00 FF E0
  can0  0CACFFF0   [8]  64 7D 3C FF C0 FF FF FF
  can0  0CFE48F0   [8]  00 00 00 00 00 00 01 14
  can0  0CFE49F0   [8]  FF FF FF FF 00 00 FF FC
  can0  0CF004F0   [8]  FF FF FF B0 18 FF FF FF
  can0  0CFE13F0   [8]  7D 7D 30 FF FF FF FF FF
  can0  0CFEF2F0   [8]  2F 00 FF FF FF FF FF FF
  can0  0CFE45F0   [8]  0C 3F 79 12 7B FF FF FF
  can0  0CFE46F0   [8]  FA 3F FF FF FF FF FF FF
  can0  0CFE11F0   [8]  7D 7D 30 FF FF FF FF FF
  can0  0CFE12F0   [8]  7D 7D 30 FF FF FF FF FF
  can0  0CFE14F0   [8]  7D 7D 30 FF FF FF FF FF
  can0  0CFE17F0   [8]  7D 7D 30 FF FF FF FF FF
  can0  0CFE18F0   [8]  7D 7D 30 FF FF FF FF FF
  can0  0CF022F0   [8]  00 00 00 00 00 00 FF E0
  can0  0CACFFF0   [8]  64 7D 3C FF C0 FF FF FF
  can0  0CFE48F0   [8]  00 00 00 00 00 00 01 14
  can0  0CFE49F0   [8]  FF FF FF FF 00 00 FF FC
  can0  0CF004F0   [8]  FF FF FF B8 18 FF FF FF
  can0  0CFE13F0   [8]  7D 7D 30 FF FF FF FF FF
  can0  19F8054A   [8]  00 33 93 A2 50 A0 5F 33
  can0  19F8054A   [8]  01 18 C0 8D B4 6A 01 FA
  can0  19F8054A   [8]  02 36 07 00 BE 66 A4 50
  can0  19F8054A   [8]  03 1C C9 00 88 DA CA FF
  can0  19F8054A   [8]  04 FF FF FF FF 10 03 00
  can0  19F8054A   [8]  05 64 00 64 00 00 00 00
  can0  0CFEF2F0   [8]  2F 00 FF FF FF FF FF FF
  can0  0CFE45F0   [8]  0C 3F 79 20 7B FF FF FF
  can0  0CFE46F0   [8]  FA 3F FF FF FF FF FF FF
  can0  0CFE11F0   [8]  7D 7D 30 FF FF FF FF FF
  can0  0CFE12F0   [8]  7D 7D 30 FF FF FF FF FF
  can0  0CFE14F0   [8]  7D 7D 30 FF FF FF FF FF
  can0  0CFE17F0   [8]  7D 7D 30 FF FF FF FF FF
  can0  0CFE18F0   [8]  7D 7D 30 FF FF FF FF FF
  can0  0CF022F0   [8]  00 00 00 00 00 00 FF E0
  can0  0CACFFF0   [8]  64 7D 3C FF C0 FF FF FF
  can0  19F8054A   [8]  06 00 02 F0 FF 00 00 F0
  can0  19F8054A   [8]  07 FF 00 00 FF FF FF FF
  can0  19F8014A   [8]  3A B4 FC 1E 73 C3 5F 03
  can0  19F8024A   [8]  93 00 13 57 03 00 00 00
  can0  0CFE48F0   [8]  00 00 00 00 00 00 01 14
  can0  0CFE49F0   [8]  FF FF FF FF 00 00 FF FC
  can0  0CF004F0   [8]  FF FF FF B0 18 FF FF FF
  can0  0CFE13F0   [8]  7D 7D 30 FF FF FF FF FF
  can0  0CFEF2F0   [8]  2F 00 FF FF FF FF FF FF
  can0  0CFE45F0   [8]  0C 3F 79 27 7B FF FF FF
  can0  0CFE46F0   [8]  FA 3F FF FF FF FF FF FF
  can0  0CFE11F0   [8]  7D 7D 30 FF FF FF FF FF
  can0  0CFE12F0   [8]  7D 7D 30 FF FF FF FF FF
  can0  0CFE14F0   [8]  7D 7D 30 FF FF FF FF FF
  can0  0CFE17F0   [8]  7D 7D 30 FF FF FF FF FF
  can0  0CFE18F0   [8]  7D 7D 30 FF FF FF FF FF
  can0  0CF022F0   [8]  00 00 00 00 00 00 FF E0
  can0  0CACFFF0   [8]  64 7D 3C FF C0 FF FF FF
  can0  0CFE48F0   [8]  00 00 00 00 00 00 01 14
  can0  0CFE49F0   [8]  FF FF FF FF 00 00 FF FC
  can0  0CF004F0   [8]  FF FF FF B8 18 FF FF FF
  can0  0CFE13F0   [8]  7D 7D 30 FF FF FF FF FF
  can0  0CFEF2F0   [8]  2F 00 FF FF FF FF FF FF
  can0  0CFE45F0   [8]  0C 3F 79 12 7B FF FF FF
  can0  0CFE46F0   [8]  FA 3F FF FF FF FF FF FF
  can0  0CFE11F0   [8]  7D 7D 30 FF FF FF FF FF
  can0  0CFE12F0   [8]  7D 7D 30 FF FF FF FF FF
  can0  0CFE14F0   [8]  7D 7D 30 FF FF FF FF FF
  can0  0CFE17F0   [8]  7D 7D 30 FF FF FF FF FF
  can0  0CFE18F0   [8]  7D 7D 30 FF FF FF FF FF
  can0  0CF022F0   [8]  00 00 00 00 00 00 FF E0
  can0  0CACFFF0   [8]  64 7D 3C FF C0 FF FF FF
  can0  0CFE41F0   [8]  01 03 03 00 FF FF FF FF
  can0  0CFE40F0   [8]  01 03 03 00 FF FF FF FF
  can0  0CCBF7F0   [8]  FF FF FF FF 00 00 00 00
  can0  0CFE48F0   [8]  00 00 00 00 00 00 01 14
  can0  0CFE49F0   [8]  FF FF FF FF 00 00 FF FC
  can0  0CF004F0   [8]  FF FF FF C0 18 FF FF FF
  can0  0CFE13F0   [8]  7D 7D 30 FF FF FF FF FF
  can0  0CFEF2F0   [8]  2F 00 FF FF FF FF FF FF
  can0  0CFE45F0   [8]  0C 3F 79 12 7B FF FF FF
  can0  0CFE46F0   [8]  FA 3F FF FF FF FF FF FF
  can0  0CFE11F0   [8]  7D 7D 30 FF FF FF FF FF
  can0  0CFE12F0   [8]  7D 7D 30 FF FF FF FF FF
  can0  0CFE14F0   [8]  7D 7D 30 FF FF FF FF FF
  can0  0CFE17F0   [8]  7D 7D 30 FF FF FF FF FF
  can0  0CFE18F0   [8]  7D 7D 30 FF FF FF FF FF
  can0  0CF022F0   [8]  00 00 00 00 00 00 FF E0
  can0  0CACFFF0   [8]  64 7D 3C FF C0 FF FF FF
  can0  19F8014A   [8]  47 B4 FC 1E 7E C3 5F 03
  can0  19F8024A   [8]  94 00 13 57 01 00 00 00
  can0  0CFE48F0   [8]  00 00 00 00 00 00 01 14
  can0  0CFE49F0   [8]  FF FF FF FF 00 00 FF FC
  can0  0CF004F0   [8]  FF FF FF B8 18 FF FF FF
  can0  0CFE13F0   [8]  7D 7D 30 FF FF FF FF FF
  can0  0CFEF2F0   [8]  2F 00 FF FF FF FF FF FF
  can0  0CFE45F0   [8]  0C 3F 79 19 7B FF FF FF
  can0  0CFE46F0   [8]  FA 3F FF FF FF FF FF FF
  can0  0CFE11F0   [8]  7D 7D 30 FF FF FF FF FF
  can0  0CFE12F0   [8]  7D 7D 30 FF FF FF FF FF
  can0  0CFE14F0   [8]  7D 7D 30 FF FF FF FF FF
  can0  0CFE17F0   [8]  7D 7D 30 FF FF FF FF FF
  can0  0CFE18F0   [8]  7D 7D 30 FF FF FF FF FF
  can0  0CF022F0   [8]  00 00 00 00 00 00 FF E0
  can0  0CACFFF0   [8]  63 7D 3C FF C0 FF FF FF
  can0  0CFE48F0   [8]  00 00 00 00 00 00 01 14
  can0  0CFE49F0   [8]  FF FF FF FF 00 00 FF FC
  can0  0CF004F0   [8]  FF FF FF C0 18 FF FF FF
  can0  0CFE13F0   [8]  7D 7D 30 FF FF FF FF FF
  can0  0CFEF2F0   [8]  2F 00 FF FF FF FF FF FF
  can0  0CFE45F0   [8]  0C 3F 79 08 7B FF FF FF
  can0  0CFE46F0   [8]  FA 3F FF FF FF FF FF FF
  can0  0CFE11F0   [8]  7D 7D 30 FF FF FF FF FF
  can0  0CFE12F0   [8]  7D 7D 30 FF FF FF FF FF
  can0  0CFE14F0   [8]  7D 7D 30 FF FF FF FF FF
  can0  0CFE17F0   [8]  7D 7D 30 FF FF FF FF FF
  can0  0CFE18F0   [8]  7D 7D 30 FF FF FF FF FF
  can0  0CF022F0   [8]  00 00 00 00 00 00 FF E0
  can0  0CACFFF0   [8]  64 7D 3C FF C0 FF FF FF
  can0  0CCBF0F7   [8]  12 00 8D 00 FF FF FF FF
  can0  0CCBF7F0   [8]  13 00 8D 00 00 00 00 00
  can0  0CFE48F0   [8]  00 00 00 00 00 00 01 14
  can0  0CFE49F0   [8]  FF FF FF FF 00 00 FF FC
  can0  0CF004F0   [8]  FF FF FF B8 18 FF FF FF
  can0  0CFE13F0   [8]  7D 7D 30 FF FF FF FF FF
  can0  0CFEF2F0   [8]  2F 00 FF FF FF FF FF FF
  can0  0CFE45F0   [8]  0C 3F 79 19 7B FF FF FF
  can0  0CFE46F0   [8]  FA 3F FF FF FF FF FF FF
  can0  0CFE11F0   [8]  7D 7D 30 FF FF FF FF FF
  can0  0CFE12F0   [8]  7D 7D 30 FF FF FF FF FF
  can0  0CFE14F0   [8]  7D 7D 30 FF FF FF FF FF
  can0  0CFE17F0   [8]  7D 7D 30 FF FF FF FF FF
  can0  0CFE18F0   [8]  7D 7D 30 FF FF FF FF FF
  can0  0CF022F0   [8]  00 00 00 00 00 00 FF E0
  can0  0CACFFF0   [8]  63 7D 3C FF C0 FF FF FF
  can0  0CFE48F0   [8]  00 00 00 00 00 00 01 14
  can0  0CFE49F0   [8]  FF FF FF FF 00 00 FF FC
  can0  0CF004F0   [8]  FF FF FF B8 18 FF FF FF
  can0  0CFE13F0   [8]  7D 7D 30 FF FF FF FF FF
  can0  0CFEF2F0   [8]  2F 00 FF FF FF FF FF FF
  can0  0CFE45F0   [8]  0C 3F 79 2B 7B FF FF FF
  can0  0CFE46F0   [8]  FA 3F FF FF FF FF FF FF
  can0  0CFE11F0   [8]  7D 7D 30 FF FF FF FF FF
  can0  0CFE12F0   [8]  7D 7D 30 FF FF FF FF FF
  can0  0CFE14F0   [8]  7D 7D 30 FF FF FF FF FF
  can0  0CFE17F0   [8]  7D 7D 30 FF FF FF FF FF
  can0  0CFE18F0   [8]  7D 7D 30 FF FF FF FF FF
  can0  0CF022F0   [8]  00 00 00 00 00 00 FF E0
  can0  0CFEE7F0   [8]  16 28 00 00 FF FF FF FF
  can0  0CACFFF0   [8]  64 7D 3C FF C0 FF FF FF
  can0  0CFD02F0   [8]  FF FF FF FF FF FF 00 FD
  can0  19F8014A   [8]  51 B4 FC 1E 84 C3 5F 03
  can0  19F8024A   [8]  94 00 13 57 04 00 00 00
  can0  0CFE48F0   [8]  00 00 00 00 00 00 01 14
  can0  0CFE49F0   [8]  FF FF FF FF 00 00 FF FC
  can0  0CF004F0   [8]  FF FF FF B8 18 FF FF FF
  can0  0CFE13F0   [8]  7D 7D 30 FF FF FF FF FF
  can0  0CFEF2F0   [8]  2F 00 FF FF FF FF FF FF
  can0  0CFE45F0   [8]  0C 3F 79 0F 7B FF FF FF
  can0  0CFE46F0   [8]  FA 3F FF FF FF FF FF FF
  can0  0CFE11F0   [8]  7D 7D 30 FF FF FF FF FF
  can0  0CFE12F0   [8]  7D 7D 30 FF FF FF FF FF
  can0  0CFE14F0   [8]  7D 7D 30 FF FF FF FF FF
  can0  0CFE17F0   [8]  7D 7D 30 FF FF FF FF FF
  can0  0CFE18F0   [8]  7D 7D 30 FF FF FF FF FF
  can0  0CF022F0   [8]  00 00 00 00 00 00 FF E0
  can0  0CACFFF0   [8]  64 7D 3C FF C0 FF FF FF
  can0  0CFE48F0   [8]  00 00 00 00 00 00 01 14
  can0  0CFE49F0   [8]  FF FF FF FF 00 00 FF FC
  can0  0CF004F0   [8]  FF FF FF B8 18 FF FF FF
  can0  0CFE13F0   [8]  7D 7D 30 FF FF FF FF FF
  can0  0CFEF2F0   [8]  2F 00 FF FF FF FF FF FF
  can0  0CFE45F0   [8]  0C 3F 79 20 7B FF FF FF
  can0  0CFE46F0   [8]  FA 3F FF FF FF FF FF FF
  can0  0CFE11F0   [8]  7D 7D 30 FF FF FF FF FF
  can0  0CFE12F0   [8]  7D 7D 30 FF FF FF FF FF
  can0  0CFE14F0   [8]  7D 7D 30 FF FF FF FF FF
  can0  0CFE17F0   [8]  7D 7D 30 FF FF FF FF FF
  can0  0CFE18F0   [8]  7D 7D 30 FF FF FF FF FF
  can0  0CF022F0   [8]  00 00 00 00 00 00 FF E0
  can0  0CACFFF0   [8]  65 7D 3C FF C0 FF FF FF
  can0  0CFE48F0   [8]  00 00 00 00 00 00 01 14
  can0  0CFE49F0   [8]  FF FF FF FF 00 00 FF FC
  can0  0CF004F0   [8]  FF FF FF B0 18 FF FF FF
  can0  0CFE13F0   [8]  7D 7D 30 FF FF FF FF FF
  can0  0CFEF2F0   [8]  2F 00 FF FF FF FF FF FF
  can0  0CFE45F0   [8]  0C 3F 79 19 7B FF FF FF
  can0  0CFE46F0   [8]  FA 3F FF FF FF FF FF FF
  can0  0CFE11F0   [8]  7D 7D 30 FF FF FF FF FF
  can0  0CFE12F0   [8]  7D 7D 30 FF FF FF FF FF
  can0  0CFE14F0   [8]  7D 7D 30 FF FF FF FF FF
  can0  0CFE17F0   [8]  7D 7D 30 FF FF FF FF FF
  can0  0CFE18F0   [8]  7D 7D 30 FF FF FF FF FF
  can0  0CF022F0   [8]  00 00 00 00 00 00 FF E0
  can0  0CACFFF0   [8]  64 7D 3C FF C0 FF FF FF
  can0  0CFEF4F0   [8]  FF FF FF FF FF FF FF FF
  can0  19F8054A   [8]  00 33 94 A2 50 B0 86 33
  can0  19F8054A   [8]  01 18 00 2C DE 90 09 FA
  can0  19F8054A   [8]  02 36 07 00 D6 54 29 57
  can0  19F8054A   [8]  03 1C C9 00 10 B2 D4 FF
  can0  19F8054A   [8]  04 FF FF FF FF 10 03 00
  can0  19F8054A   [8]  05 64 00 64 00 00 00 00
  can0  0CFE48F0   [8]  00 00 00 00 00 00 01 14
  can0  0CFE49F0   [8]  FF FF FF FF 00 00 FF FC
  can0  0CF004F0   [8]  FF FF FF B0 18 FF FF FF
  can0  0CFE13F0   [8]  7D 7D 30 FF FF FF FF FF
  can0  19F8054A   [8]  06 00 02 F0 FF 00 00 F0
  can0  19F8054A   [8]  07 FF 00 00 FF FF FF FF
  can0  19F8014A   [8]  5E B4 FC 1E 8E C3 5F 03
  can0  19F8024A   [8]  94 00 13 57 00 00 00 00
  can0  0CFEF2F0   [8]  2F 00 FF FF FF FF FF FF
  can0  0CFE45F0   [8]  0C 3F 79 0F 7B FF FF FF
  can0  0CFE46F0   [8]  FA 3F FF FF FF FF FF FF
  can0  0CFE11F0   [8]  7D 7D 30 FF FF FF FF FF
  can0  0CFE12F0   [8]  7D 7D 30 FF FF FF FF FF
  can0  0CFE14F0   [8]  7D 7D 30 FF FF FF FF FF
  can0  0CFE17F0   [8]  7D 7D 30 FF FF FF FF FF
  can0  0CFE18F0   [8]  7D 7D 30 FF FF FF FF FF
  can0  0CF022F0   [8]  00 00 00 00 00 00 FF E0
  can0  0CACFFF0   [8]  64 7D 3C FF C0 FF FF FF
  can0  0CCBF0F7   [8]  12 00 43 00 FF FF FF FF
  can0  0CCBF7F0   [8]  13 00 43 00 00 00 00 00
  can0  0CFE48F0   [8]  00 00 00 00 00 00 01 14
  can0  0CFE49F0   [8]  FF FF FF FF 00 00 FF FC
  can0  0CF004F0   [8]  FF FF FF B0 18 FF FF FF
  can0  0CFE13F0   [8]  7D 7D 30 FF FF FF FF FF
  can0  0CFEF2F0   [8]  2F 00 FF FF FF FF FF FF
  can0  0CFE45F0   [8]  0C 3F 79 19 7B FF FF FF
  can0  0CFE46F0   [8]  FA 3F FF FF FF FF FF FF
  can0  0CFE11F0   [8]  7D 7D 30 FF FF FF FF FF
  can0  0CFE12F0   [8]  7D 7D 30 FF FF FF FF FF
  can0  0CFE14F0   [8]  7D 7D 30 FF FF FF FF FF
  can0  0CFE17F0   [8]  7D 7D 30 FF FF FF FF FF
  can0  0CFE18F0   [8]  7D 7D 30 FF FF FF FF FF
  can0  0CF022F0   [8]  00 00 00 00 00 00 FF E0
  can0  0CACFFF0   [8]  64 7D 3C FF C0 FF FF FF
  can0  0CFE41F0   [8]  01 03 03 00 FF FF FF FF
  can0  0CFE40F0   [8]  01 03 03 00 FF FF FF FF
  can0  0CFE48F0   [8]  00 00 00 00 00 00 01 14
  can0  0CFE49F0   [8]  FF FF FF FF 00 00 FF FC
  can0  0CF004F0   [8]  FF FF FF B8 18 FF FF FF
  can0  0CFE13F0   [8]  7D 7D 30 FF FF FF FF FF
  can0  0CFEF2F0   [8]  2F 00 FF FF FF FF FF FF
  can0  0CFE45F0   [8]  0C 3F 79 19 7B FF FF FF
  can0  0CFE46F0   [8]  FA 3F FF FF FF FF FF FF
  can0  0CFE11F0   [8]  7D 7D 30 FF FF FF FF FF
  can0  0CFE12F0   [8]  7D 7D 30 FF FF FF FF FF
  can0  0CFE14F0   [8]  7D 7D 30 FF FF FF FF FF
  can0  0CFE17F0   [8]  7D 7D 30 FF FF FF FF FF
  can0  0CFE18F0   [8]  7D 7D 30 FF FF FF FF FF
  can0  0CF022F0   [8]  00 00 00 00 00 00 FF E0
  can0  0CACFFF0   [8]  64 7D 3C FF C0 FF FF FF
  can0  0CFE48F0   [8]  00 00 00 00 00 00 01 14
  can0  0CFE49F0   [8]  FF FF FF FF 00 00 FF FC
  can0  0CF004F0   [8]  FF FF FF C0 18 FF FF FF
  can0  0CFE13F0   [8]  7D 7D 30 FF FF FF FF FF
  can0  0CFEF2F0   [8]  2F 00 FF FF FF FF FF FF
  can0  0CFE45F0   [8]  0C 3F 79 12 7B FF FF FF
  can0  0CFE46F0   [8]  FA 3F FF FF FF FF FF FF
  can0  0CFE11F0   [8]  7D 7D 30 FF FF FF FF FF
  can0  0CFE12F0   [8]  7D 7D 30 FF FF FF FF FF
  can0  0CFE14F0   [8]  7D 7D 30 FF FF FF FF FF
  can0  0CFE17F0   [8]  7D 7D 30 FF FF FF FF FF
  can0  0CFE18F0   [8]  7D 7D 30 FF FF FF FF FF
  can0  0CF022F0   [8]  00 00 00 00 00 00 FF E0
  can0  0CACFFF0   [8]  64 7D 3C FF C0 FF FF FF
  can0  19F8014A   [8]  6A B4 FC 1E 96 C3 5F 03
  can0  19F8024A   [8]  95 00 13 57 03 00 00 00
  can0  0CFE48F0   [8]  00 00 00 00 00 00 01 14
  can0  0CFE49F0   [8]  FF FF FF FF 00 00 FF FC
  can0  0CF004F0   [8]  FF FF FF B0 18 FF FF FF
  can0  0CFE13F0   [8]  7D 7D 30 FF FF FF FF FF
  can0  0CFEF2F0   [8]  2F 00 FF FF FF FF FF FF
  can0  0CFE45F0   [8]  0C 3F 79 08 7B FF FF FF
  can0  0CFE46F0   [8]  FA 3F FF FF FF FF FF FF
  can0  0CFE11F0   [8]  7D 7D 30 FF FF FF FF FF
  can0  0CFE12F0   [8]  7D 7D 30 FF FF FF FF FF
  can0  0CFE14F0   [8]  7D 7D 30 FF FF FF FF FF
  can0  0CFE17F0   [8]  7D 7D 30 FF FF FF FF FF
  can0  0CFE18F0   [8]  7D 7D 30 FF FF FF FF FF
  can0  0CF022F0   [8]  00 00 00 00 00 00 FF E0
  can0  0CACFFF0   [8]  64 7D 3C FF C0 FF FF FF
  can0  0CCBF0F7   [8]  12 00 8D 00 FF FF FF FF
  can0  0CCBF7F0   [8]  13 00 8D 00 00 00 00 00
  can0  0CFE48F0   [8]  00 00 00 00 00 00 01 14
  can0  0CFE49F0   [8]  FF FF FF FF 00 00 FF FC
  can0  0CF004F0   [8]  FF FF FF A8 18 FF FF FF
  can0  0CFE13F0   [8]  7D 7D 30 FF FF FF FF FF
  can0  0CFEF2F0   [8]  2F 00 FF FF FF FF FF FF
  can0  0CFE45F0   [8]  0C 3F 79 12 7B FF FF FF
  can0  0CFE46F0   [8]  FA 3F FF FF FF FF FF FF
  can0  0CFE11F0   [8]  7D 7D 30 FF FF FF FF FF
  can0  0CFE12F0   [8]  7D 7D 30 FF FF FF FF FF
  can0  0CFE14F0   [8]  7D 7D 30 FF FF FF FF FF
  can0  0CFE17F0   [8]  7D 7D 30 FF FF FF FF FF
  can0  0CFE18F0   [8]  7D 7D 30 FF FF FF FF FF
  can0  0CF022F0   [8]  00 00 00 00 00 00 FF E0
  can0  0CACFFF0   [8]  63 7D 3C FF C0 FF FF FF
  can0  0CCBFFF7   [8]  FE FF FF FF 00 00 00 00
  can0  0CFE48F0   [8]  00 00 00 00 00 00 01 14
  can0  0CFE49F0   [8]  FF FF FF FF 00 00 FF FC
  can0  0CF004F0   [8]  FF FF FF B0 18 FF FF FF
  can0  0CFE13F0   [8]  7D 7D 30 FF FF FF FF FF
  can0  0CFEF2F0   [8]  2F 00 FF FF FF FF FF FF
  can0  0CFE45F0   [8]  0C 3F 79 01 7B FF FF FF
  can0  0CFE46F0   [8]  FA 3F FF FF FF FF FF FF
  can0  0CFE11F0   [8]  7D 7D 30 FF FF FF FF FF
  can0  0CFE12F0   [8]  7D 7D 30 FF FF FF FF FF
  can0  0CFE14F0   [8]  7D 7D 30 FF FF FF FF FF
  can0  0CFE17F0   [8]  7D 7D 30 FF FF FF FF FF
  can0  0CFE18F0   [8]  7D 7D 30 FF FF FF FF FF
  can0  0CF022F0   [8]  00 00 00 00 00 00 FF E0
  can0  0CFEE7F0   [8]  16 28 00 00 FF FF FF FF
  can0  0CACFFF0   [8]  64 7D 3C FF C0 FF FF FF
  can0  0CFD02F0   [8]  FF FF FF FF FF FF 00 FD
  can0  0CFE48F0   [8]  00 00 00 00 00 00 01 14
  can0  0CFE49F0   [8]  FF FF FF FF 00 00 FF FC
  can0  0CF004F0   [8]  FF FF FF B0 18 FF FF FF
  can0  0CFE13F0   [8]  7D 7D 30 FF FF FF FF FF
  can0  0CFEF2F0   [8]  2F 00 FF FF FF FF FF FF
  can0  0CFE45F0   [8]  0C 3F 79 0B 7B FF FF FF
  can0  0CFE46F0   [8]  FA 3F FF FF FF FF FF FF
  can0  0CFE11F0   [8]  7D 7D 30 FF FF FF FF FF
  can0  0CFE12F0   [8]  7D 7D 30 FF FF FF FF FF
  can0  0CFE14F0   [8]  7D 7D 30 FF FF FF FF FF
  can0  0CFE17F0   [8]  7D 7D 30 FF FF FF FF FF
  can0  0CFE18F0   [8]  7D 7D 30 FF FF FF FF FF
  can0  0CF022F0   [8]  00 00 00 00 00 00 FF E0
  can0  0CACFFF0   [8]  63 7D 3C FF C0 FF FF FF
  can0  19F8014A   [8]  72 B4 FC 1E 9C C3 5F 03
  can0  19F8024A   [8]  95 00 13 57 03 00 00 00
  can0  0CFE48F0   [8]  00 00 00 00 00 00 01 14
  can0  0CFE49F0   [8]  FF FF FF FF 00 00 FF FC
  can0  0CF004F0   [8]  FF FF FF B0 18 FF FF FF
  can0  0CFE13F0   [8]  7D 7D 30 FF FF FF FF FF
  can0  0CFEF2F0   [8]  2F 00 FF FF FF FF FF FF
  can0  0CFE45F0   [8]  0C 3F 79 12 7B FF FF FF
  can0  0CFE46F0   [8]  FA 3F FF FF FF FF FF FF
  can0  0CFE11F0   [8]  7D 7D 30 FF FF FF FF FF
  can0  0CFE12F0   [8]  7D 7D 30 FF FF FF FF FF
  can0  0CFE14F0   [8]  7D 7D 30 FF FF FF FF FF
  can0  0CFE17F0   [8]  7D 7D 30 FF FF FF FF FF
  can0  0CFE18F0   [8]  7D 7D 30 FF FF FF FF FF
  can0  0CF022F0   [8]  00 00 00 00 00 00 FF E0
  can0  0CACFFF0   [8]  64 7D 3C FF C0 FF FF FF
  can0  0CFE48F0   [8]  00 00 00 00 00 00 01 14
  can0  0CFE49F0   [8]  FF FF FF FF 00 00 FF FC
  can0  0CF004F0   [8]  FF FF FF C0 18 FF FF FF
  can0  0CFE13F0   [8]  7D 7D 30 FF FF FF FF FF
  can0  0CFEF2F0   [8]  2F 00 FF FF FF FF FF FF
  can0  0CFE45F0   [8]  0C 3F 79 32 7B FF FF FF
  can0  0CFE46F0   [8]  FA 3F FF FF FF FF FF FF
  can0  0CFE11F0   [8]  7D 7D 30 FF FF FF FF FF
  can0  0CFE12F0   [8]  7D 7D 30 FF FF FF FF FF
  can0  0CFE14F0   [8]  7D 7D 30 FF FF FF FF FF
  can0  0CFE17F0   [8]  7D 7D 30 FF FF FF FF FF
  can0  0CFE18F0   [8]  7D 7D 30 FF FF FF FF FF
  can0  0CF022F0   [8]  00 00 00 00 00 00 FF E0
  can0  0CACFFF0   [8]  64 7D 3C FF C0 FF FF FF
  can0  0CFE48F0   [8]  00 00 00 00 00 00 01 14
  can0  0CFE49F0   [8]  FF FF FF FF 00 00 FF FC
  can0  0CF004F0   [8]  FF FF FF C0 18 FF FF FF
  can0  0CFE13F0   [8]  7D 7D 30 FF FF FF FF FF
  can0  0CFEF2F0   [8]  2F 00 FF FF FF FF FF FF
  can0  0CFE45F0   [8]  0C 3F 79 24 7B FF FF FF
  can0  0CFE46F0   [8]  FA 3F FF FF FF FF FF FF
  can0  0CFE11F0   [8]  7D 7D 30 FF FF FF FF FF
  can0  0CFE12F0   [8]  7D 7D 30 FF FF FF FF FF
  can0  0CFE14F0   [8]  7D 7D 30 FF FF FF FF FF
  can0  0CFE17F0   [8]  7D 7D 30 FF FF FF FF FF
  can0  0CFE18F0   [8]  7D 7D 30 FF FF FF FF FF
  can0  0CF022F0   [8]  00 00 00 00 00 00 FF E0
  can0  0CACFFF0   [8]  62 7D 3C FF C0 FF FF FF
  can0  19F8054A   [8]  00 33 95 A2 50 C0 AD 33
  can0  19F8054A   [8]  01 18 00 A2 9C C8 10 FA
  can0  19F8054A   [8]  02 36 07 00 D4 D1 95 5B
  can0  19F8054A   [8]  03 1C C9 00 A8 B0 DE FF
  can0  19F8054A   [8]  04 FF FF FF FF 10 03 00
  can0  19F8054A   [8]  05 64 00 64 00 00 00 00
  can0  19F8054A   [8]  06 00 02 F0 FF 00 00 F0
  can0  19F8054A   [8]  07 FF 00 00 FF FF FF FF
  can0  19F8014A   [8]  7D B4 FC 1E A1 C3 5F 03
  can0  19F8024A   [8]  95 00 13 57 02 00 00 00
  can0  0CFE48F0   [8]  00 00 00 00 00 00 01 14
  can0  0CFE49F0   [8]  FF FF FF FF 00 00 FF FC
  can0  0CF004F0   [8]  FF FF FF C0 18 FF FF FF
  can0  0CFE13F0   [8]  7D 7D 30 FF FF FF FF FF
  can0  0CFEF2F0   [8]  2F 00 FF FF FF FF FF FF
  can0  0CFE45F0   [8]  0C 3F 79 12 7B FF FF FF
  can0  0CFE46F0   [8]  FA 3F FF FF FF FF FF FF
  can0  0CFE11F0   [8]  7D 7D 30 FF FF FF FF FF
  can0  0CFE12F0   [8]  7D 7D 30 FF FF FF FF FF
  can0  0CFE14F0   [8]  7D 7D 30 FF FF FF FF FF
  can0  0CFE17F0   [8]  7D 7D 30 FF FF FF FF FF
  can0  0CFE18F0   [8]  7D 7D 30 FF FF FF FF FF
  can0  0CF022F0   [8]  00 00 00 00 00 00 FF E0
  can0  0CACFFF0   [8]  63 7D 3C FF C0 FF FF FF
  can0  0CFE41F0   [8]  01 03 03 00 FF FF FF FF
  can0  0CFE40F0   [8]  01 03 03 00 FF FF FF FF
  can0  0CFE48F0   [8]  00 00 00 00 00 00 01 14
  can0  0CFE49F0   [8]  FF FF FF FF 00 00 FF FC
  can0  0CF004F0   [8]  FF FF FF B8 18 FF FF FF
  can0  0CFE13F0   [8]  7D 7D 30 FF FF FF FF FF
  can0  0CCBF7F0   [8]  FF FF FF FF 00 00 00 00
  can0  0CFEF2F0   [8]  2F 00 FF FF FF FF FF FF
  can0  0CFE45F0   [8]  0C 3F 79 12 7B FF FF FF
  can0  0CFE46F0   [8]  FA 3F FF FF FF FF FF FF
  can0  0CFE11F0   [8]  7D 7D 30 FF FF FF FF FF
  can0  0CFE12F0   [8]  7D 7D 30 FF FF FF FF FF
  can0  0CFE14F0   [8]  7D 7D 30 FF FF FF FF FF
  can0  0CFE17F0   [8]  7D 7D 30 FF FF FF FF FF
  can0  0CFE18F0   [8]  7D 7D 30 FF FF FF FF FF
  can0  0CF022F0   [8]  00 00 00 00 00 00 FF E0
  can0  0CACFFF0   [8]  63 7D 3C FF C0 FF FF FF
  can0  0CFE48F0   [8]  00 00 00 00 00 00 01 14
  can0  0CFE49F0   [8]  FF FF FF FF 00 00 FF FC
  can0  0CF004F0   [8]  FF FF FF B8 18 FF FF FF
  can0  0CFE13F0   [8]  7D 7D 30 FF FF FF FF FF
  can0  0CFEF2F0   [8]  2F 00 FF FF FF FF FF FF
  can0  0CFE45F0   [8]  0C 3F 79 12 7B FF FF FF
  can0  0CFE46F0   [8]  FA 3F FF FF FF FF FF FF
  can0  0CFE11F0   [8]  7D 7D 30 FF FF FF FF FF
  can0  0CFE12F0   [8]  7D 7D 30 FF FF FF FF FF
  can0  0CFE14F0   [8]  7D 7D 30 FF FF FF FF FF
  can0  0CFE17F0   [8]  7D 7D 30 FF FF FF FF FF
  can0  0CFE18F0   [8]  7D 7D 30 FF FF FF FF FF
  can0  0CF022F0   [8]  00 00 00 00 00 00 FF E0
  can0  0CACFFF0   [8]  64 7D 3C FF C0 FF FF FF
  can0  0CFE48F0   [8]  00 00 00 00 00 00 01 14
  can0  0CFE49F0   [8]  FF FF FF FF 00 00 FF FC
  can0  0CF004F0   [8]  FF FF FF A8 18 FF FF FF
  can0  0CFE13F0   [8]  7D 7D 30 FF FF FF FF FF
  can0  0CFEF2F0   [8]  2F 00 FF FF FF FF FF FF
  can0  0CFE45F0   [8]  0C 3F 79 19 7B FF FF FF
  can0  0CFE46F0   [8]  FA 3F FF FF FF FF FF FF
  can0  0CFE11F0   [8]  7D 7D 30 FF FF FF FF FF
  can0  0CFE12F0   [8]  7D 7D 30 FF FF FF FF FF
  can0  0CFE14F0   [8]  7D 7D 30 FF FF FF FF FF
  can0  0CFE17F0   [8]  7D 7D 30 FF FF FF FF FF
  can0  0CFE18F0   [8]  7D 7D 30 FF FF FF FF FF
  can0  0CF022F0   [8]  00 00 00 00 00 00 FF E0
  can0  0CACFFF0   [8]  65 7D 3C FF C0 FF FF FF
  can0  19F8014A   [8]  85 B4 FC 1E A7 C3 5F 03
  can0  19F8024A   [8]  96 00 13 57 01 00 00 00
  can0  0CCBF0F7   [8]  12 00 8D 00 FF FF FF FF
  can0  0CCBF7F0   [8]  13 00 8D 00 00 00 00 00
  can0  0CFE48F0   [8]  00 00 00 00 00 00 01 14
  can0  0CFE49F0   [8]  FF FF FF FF 00 00 FF FC
  can0  0CF004F0   [8]  FF FF FF B0 18 FF FF FF
  can0  0CFE13F0   [8]  7D 7D 30 FF FF FF FF FF
  can0  0CFEF2F0   [8]  2F 00 FF FF FF FF FF FF
  can0  0CFE45F0   [8]  0C 3F 79 19 7B FF FF FF
  can0  0CFE46F0   [8]  FA 3F FF FF FF FF FF FF
  can0  0CFE11F0   [8]  7D 7D 30 FF FF FF FF FF
  can0  0CFE12F0   [8]  7D 7D 30 FF FF FF FF FF
  can0  0CFE14F0   [8]  7D 7D 30 FF FF FF FF FF
  can0  0CFE17F0   [8]  7D 7D 30 FF FF FF FF FF
